***BUSMASTER Ver 3.2.2***
***PROTOCOL CAN***
***NOTE: PLEASE DO NOT EDIT THIS DOCUMENT***
***[START LOGGING SESSION]***
***START DATE AND TIME 11:1:2023 9:28:23:650***
***HEX***
***SYSTEM MODE***
***START CHANNEL BAUD RATE***
***CHANNEL 1 - ETAS://USB/ES581.4:2202787/CAN:1 - 500000 bps***
***END CHANNEL BAUD RATE***
***START DATABASE FILES***
***END DATABASE FILES***
***<Time><Tx/Rx><Channel><CAN ID><Type><DLC><DataBytes>***
09:29:22:8705 Rx 1 0x740 s 8 02 10 03 CC CC CC CC CC 
09:29:22:8780 Rx 1 0x748 s 8 06 50 03 00 32 00 C8 FF 
09:29:22:8794 Rx 1 0x740 s 8 02 3E 00 CC CC CC CC CC 
09:29:22:8880 Rx 1 0x748 s 8 02 7E 00 FF FF FF FF FF 
09:29:22:8890 Rx 1 0x740 s 8 02 85 02 CC CC CC CC CC 
09:29:22:9001 Rx 1 0x748 s 8 02 C5 02 FF FF FF FF FF 
09:29:22:9022 Rx 1 0x740 s 8 03 28 03 01 CC CC CC CC 
09:29:22:9100 Rx 1 0x748 s 8 02 68 03 FF FF FF FF FF 
09:29:22:9172 Rx 1 0x740 s 8 02 10 02 CC CC CC CC CC 
09:29:22:9221 Rx 1 0x748 s 8 06 50 02 00 32 00 C8 FF 
09:29:22:9236 Rx 1 0x740 s 8 02 3E 00 CC CC CC CC CC 
09:29:22:9321 Rx 1 0x748 s 8 02 7E 00 FF FF FF FF FF 
09:29:23:9419 Rx 1 0x740 s 8 02 27 11 CC CC CC CC CC 
09:29:23:9451 Rx 1 0x748 s 8 06 67 11 E9 E6 1D 41 FF 
09:29:23:9469 Rx 1 0x740 s 8 06 27 12 EA E7 1E 42 CC 
09:29:23:9571 Rx 1 0x748 s 8 02 67 12 FF FF FF FF FF 
09:29:24:4713 Rx 1 0x740 s 8 10 0C 2E F1 84 23 01 09 
09:29:24:4736 Rx 1 0x748 s 8 30 00 00 FF FF FF FF FF 
09:29:24:4746 Rx 1 0x740 s 8 21 00 01 02 03 04 05 CC 
09:29:24:4857 Rx 1 0x748 s 8 03 6E F1 84 FF FF FF FF 
09:29:25:5531 Rx 1 0x740 s 8 10 0B 34 00 44 00 7B 00 
09:29:25:5647 Rx 1 0x748 s 8 30 00 00 FF FF FF FF FF 
09:29:25:5659 Rx 1 0x740 s 8 21 00 00 00 80 00 CC CC 
09:29:25:5748 Rx 1 0x748 s 8 04 74 20 08 02 FF FF FF 
09:29:25:5758 Rx 1 0x740 s 8 18 02 36 01 14 01 7B 00 
09:29:25:5867 Rx 1 0x748 s 8 30 00 00 FF FF FF FF FF 
09:29:25:5877 Rx 1 0x740 s 8 21 34 01 7B 00 4C 01 7B 
09:29:25:5879 Rx 1 0x740 s 8 22 00 F4 01 7B 00 70 02 
09:29:25:5882 Rx 1 0x740 s 8 23 7B 00 00 00 00 00 00 
09:29:25:5884 Rx 1 0x740 s 8 24 00 00 00 00 00 00 00 
09:29:25:5887 Rx 1 0x740 s 8 25 F1 C0 22 20 80 0F 7B 
09:29:25:5890 Rx 1 0x740 s 8 26 00 B0 39 D1 C0 E0 7E 
09:29:25:5892 Rx 1 0x740 s 8 27 E0 78 F1 C0 22 20 80 
09:29:25:5894 Rx 1 0x740 s 8 28 0F 7B 00 84 39 D1 C0 
09:29:25:5897 Rx 1 0x740 s 8 29 E0 7E E0 78 0C 70 00 
09:29:25:5899 Rx 1 0x740 s 8 2A 41 00 42 00 43 00 44 
09:29:25:5901 Rx 1 0x740 s 8 2B 00 45 00 46 00 47 08 
09:29:25:5904 Rx 1 0x740 s 8 2C 40 08 41 08 42 08 43 
09:29:25:5906 Rx 1 0x740 s 8 2D 08 44 08 45 08 46 08 
09:29:25:5908 Rx 1 0x740 s 8 2E 47 10 40 10 41 10 42 
09:29:25:5911 Rx 1 0x740 s 8 2F 10 43 10 44 10 45 10 
09:29:25:5913 Rx 1 0x740 s 8 20 46 10 47 18 40 18 41 
09:29:25:5915 Rx 1 0x740 s 8 21 18 43 0A 25 40 30 0A 
09:29:25:5918 Rx 1 0x740 s 8 22 26 40 30 0A 20 80 8F 
09:29:25:5920 Rx 1 0x740 s 8 23 7B 00 FC 3A 08 00 01 
09:29:25:5922 Rx 1 0x740 s 8 24 00 40 78 DB 44 80 00 
09:29:25:5925 Rx 1 0x740 s 8 25 00 00 DB 42 7B 00 00 
09:29:25:5927 Rx 1 0x740 s 8 26 3E 4A 26 00 70 0A 22 
09:29:25:5930 Rx 1 0x740 s 8 27 80 8F 00 00 00 00 E2 
09:29:25:5932 Rx 1 0x740 s 8 28 20 82 00 0A 22 80 8F 
09:29:25:5935 Rx 1 0x740 s 8 29 00 00 00 00 E2 20 82 
09:29:25:5937 Rx 1 0x740 s 8 2A 00 0A 22 80 8F 00 00 
09:29:25:5940 Rx 1 0x740 s 8 2B 00 00 E2 20 82 00 0A 
09:29:25:5942 Rx 1 0x740 s 8 2C 22 80 8F 00 00 00 00 
09:29:25:5945 Rx 1 0x740 s 8 2D E2 20 82 00 0A 22 80 
09:29:25:5947 Rx 1 0x740 s 8 2E 8F 00 00 00 00 E2 20 
09:29:25:5949 Rx 1 0x740 s 8 2F 82 00 22 20 80 0F 7B 
09:29:25:5952 Rx 1 0x740 s 8 20 00 38 2F 05 00 00 00 
09:29:25:5954 Rx 1 0x740 s 8 21 30 D8 22 20 80 0F 7B 
09:29:25:5956 Rx 1 0x740 s 8 22 00 0C 38 E0 78 00 1E 
09:29:25:5959 Rx 1 0x740 s 8 23 C2 70 7B 00 00 3D 0C 
09:29:25:5961 Rx 1 0x740 s 8 24 70 E0 7E A1 C1 03 1C 
09:29:25:5963 Rx 1 0x740 s 8 25 03 30 03 14 80 30 14 
09:29:25:5966 Rx 1 0x740 s 8 26 71 02 F4 FD F1 0C 70 
09:29:25:5968 Rx 1 0x740 s 8 27 87 74 E0 7E E0 78 E2 
09:29:25:5970 Rx 1 0x740 s 8 28 C2 08 45 02 8D 14 72 
09:29:25:5973 Rx 1 0x740 s 8 29 0A F4 C3 40 7B 00 0C 
09:29:25:5975 Rx 1 0x740 s 8 2A 46 B2 09 00 00 02 1D 
09:29:25:5978 Rx 1 0x740 s 8 2B C3 10 00 1D 05 10 C2 
09:29:25:5980 Rx 1 0x740 s 8 2C C6 E0 78 22 88 34 73 
09:29:25:5983 Rx 1 0x740 s 8 2D 06 F4 02 18 83 00 00 
09:29:25:5986 Rx 1 0x740 s 8 2E 18 05 00 04 F0 00 18 
09:29:25:5988 Rx 1 0x740 s 8 2F 85 00 E0 7E E0 78 E2 
09:29:25:5990 Rx 1 0x740 s 8 20 C2 08 45 B5 70 1C F2 
09:29:25:5993 Rx 1 0x740 s 8 21 02 8D 14 73 16 F4 01 
09:29:25:5995 Rx 1 0x740 s 8 22 85 22 85 B2 09 00 00 
09:29:25:5997 Rx 1 0x740 s 8 23 14 70 0D F4 1A 0B 00 
09:29:25:6000 Rx 1 0x740 s 8 24 00 F6 09 00 00 14 70 
09:29:25:6002 Rx 1 0x740 s 8 25 04 F4 00 1D 05 10 04 
09:29:25:6004 Rx 1 0x740 s 8 26 F0 00 1D 45 10 03 F0 
09:29:25:6007 Rx 1 0x740 s 8 27 00 1D 05 11 04 F0 00 
09:29:25:6009 Rx 1 0x740 s 8 28 1D 85 10 C2 C6 E0 78 
09:29:25:6011 Rx 1 0x740 s 8 29 E1 C5 54 74 43 F7 08 
09:29:25:6014 Rx 1 0x740 s 8 2A 44 13 F0 05 20 43 00 
09:29:25:6016 Rx 1 0x740 s 8 2B C1 BB 74 70 04 F2 08 
09:29:25:6018 Rx 1 0x740 s 8 2C 44 0D F0 41 2A 83 00 
09:29:25:6021 Rx 1 0x740 s 8 2D C1 BA 08 44 A0 81 A0 
09:29:25:6023 Rx 1 0x740 s 8 2E A4 85 74 24 74 64 77 
09:29:25:6025 Rx 1 0x740 s 8 2F 74 70 FA F5 54 72 42 
09:29:25:6028 Rx 1 0x740 s 8 20 F7 11 F0 05 24 43 10 
09:29:25:6030 Rx 1 0x740 s 8 21 C0 BB 74 70 02 F2 0B 
09:29:25:6032 Rx 1 0x740 s 8 22 F0 5D 7B C0 BA A0 91 
09:29:25:6035 Rx 1 0x740 s 8 23 A0 B4 85 72 24 72 64 
09:29:25:6037 Rx 1 0x740 s 8 24 77 74 70 FA F5 6C 70 
09:29:25:6039 Rx 1 0x740 s 8 25 50 73 48 F7 A0 89 A0 
09:29:25:6042 Rx 1 0x740 s 8 26 AC 85 71 24 71 64 71 
09:29:25:6044 Rx 1 0x740 s 8 27 FA F1 C2 C4 E0 78 E6 
09:29:25:6046 Rx 1 0x740 s 8 28 C2 08 47 F5 70 39 F2 
09:29:25:6048 Rx 1 0x740 s 8 29 02 8F 14 73 32 F4 03 
09:29:25:6051 Rx 1 0x740 s 8 2A 87 14 70 2D F2 04 17 
09:29:25:6053 Rx 1 0x740 s 8 2B 0B 10 A2 87 D3 75 00 
09:29:25:6056 Rx 1 0x740 s 8 2C 00 00 08 44 00 0D 00 
09:29:25:6058 Rx 1 0x740 s 8 2D AF 78 14 70 1E F4 23 
09:29:25:6060 Rx 1 0x740 s 8 2E 87 CB 46 7B 00 F0 47 
09:29:25:6062 Rx 1 0x740 s 8 2F C1 40 A1 42 D9 FF 61 
09:29:25:6065 Rx 1 0x740 s 8 20 40 C1 41 A1 42 EA 08 
09:29:25:6068 Rx 1 0x740 s 8 21 00 00 14 70 0D F4 46 
09:29:25:6070 Rx 1 0x740 s 8 22 0A 00 00 22 09 00 00 
09:29:25:6073 Rx 1 0x740 s 8 23 14 70 04 F4 00 1F 05 
09:29:25:6075 Rx 1 0x740 s 8 24 10 04 F0 00 1F 45 10 
09:29:25:6077 Rx 1 0x740 s 8 25 03 F0 00 1F 05 11 04 
09:29:25:6080 Rx 1 0x740 s 8 26 F0 00 1F 85 11 03 F0 
09:29:25:6082 Rx 1 0x740 s 8 27 00 1F 05 11 04 F0 00 
09:29:25:6085 Rx 1 0x740 s 8 28 1F 85 10 03 F0 00 1F 
09:29:25:6087 Rx 1 0x740 s 8 29 05 11 C6 C6 E2 C2 08 
09:29:25:6089 Rx 1 0x740 s 8 2A 45 B5 70 27 F2 02 8D 
09:29:25:6091 Rx 1 0x740 s 8 2B 14 73 20 F4 01 85 14 
09:29:25:6094 Rx 1 0x740 s 8 2C 70 1B F2 03 85 14 70 
09:29:25:6096 Rx 1 0x740 s 8 2D 17 F2 01 85 23 85 42 
09:29:25:6098 Rx 1 0x740 s 8 2E 85 FA 08 00 00 14 70 
09:29:25:6101 Rx 1 0x740 s 8 2F 0E F4 E6 09 00 00 C2 
09:29:25:6103 Rx 1 0x740 s 8 20 08 00 00 14 70 05 F4 
09:29:25:6106 Rx 1 0x740 s 8 21 00 1D 05 10 03 F0 00 
09:29:25:6108 Rx 1 0x740 s 8 22 1D 45 10 04 F0 00 1D 
09:29:25:6110 Rx 1 0x740 s 8 23 05 11 03 F0 00 1D 05 
09:29:25:6113 Rx 1 0x740 s 8 24 11 04 F0 00 1D 85 10 
09:29:25:6116 Rx 1 0x740 s 8 25 03 F0 00 1D 05 11 C2 
09:29:25:6118 Rx 1 0x740 s 8 26 C6 E0 7E E0 78 E0 7E 
09:29:25:6120 Rx 1 0x740 s 8 27 E0 78 E0 7E E0 78 E4 
09:29:25:6123 Rx 1 0x740 s 8 28 C3 A1 C1 08 46 03 1C 
09:29:25:6125 Rx 1 0x740 s 8 29 03 30 78 26 00 10 2C 
09:29:25:6127 Rx 1 0x740 s 8 2A 70 0A DA 40 24 C3 30 
09:29:25:6130 Rx 1 0x740 s 8 2B 92 0D 40 00 03 14 80 
09:29:25:6132 Rx 1 0x740 s 8 2C 30 8D E8 CB 45 7B 00 
09:29:25:6134 Rx 1 0x740 s 8 2D 54 40 00 8D 14 70 05 
09:29:25:6137 Rx 1 0x740 s 8 2E F4 C1 40 92 0A 00 00 
09:29:25:6139 Rx 1 0x740 s 8 2F 00 1D 43 10 C4 C7 F1 
09:29:25:6141 Rx 1 0x740 s 8 20 C0 26 0B 00 00 D1 C0 
09:29:25:6144 Rx 1 0x740 s 8 21 E0 7E E0 78 E6 C3 A1 
09:29:25:6146 Rx 1 0x740 s 8 22 C1 48 46 28 45 08 47 
09:29:25:6148 Rx 1 0x740 s 8 23 03 1C 03 30 78 25 00 
09:29:25:6151 Rx 1 0x740 s 8 24 10 2C 72 4C 74 40 24 
09:29:25:6153 Rx 1 0x740 s 8 25 C3 30 4A 0D 40 00 03 
09:29:25:6155 Rx 1 0x740 s 8 26 14 80 30 89 E8 E1 40 
09:29:25:6158 Rx 1 0x740 s 8 27 A1 41 C1 42 BA 0B 00 
09:29:25:6160 Rx 1 0x740 s 8 28 00 03 1C 02 30 03 14 
09:29:25:6163 Rx 1 0x740 s 8 29 80 30 C6 C7 F1 C0 42 
09:29:25:6165 Rx 1 0x740 s 8 2A 0C 00 00 D1 C0 E0 7E 
09:29:25:6167 Rx 1 0x740 s 8 2B E0 78 F1 C0 C3 40 7B 
09:29:25:6170 Rx 1 0x740 s 8 2C 00 54 40 00 88 14 70 
09:29:25:6172 Rx 1 0x740 s 8 2D 09 F4 5C D8 2C 70 4C 
09:29:25:6174 Rx 1 0x740 s 8 2E 75 6C 75 82 0D CF FF 
09:29:25:6177 Rx 1 0x740 s 8 2F 2C 71 04 F0 26 0C 00 
09:29:25:6180 Rx 1 0x740 s 8 20 00 00 41 2F 78 D1 C0 
09:29:25:6181 Rx 1 0x740 s 8 21 E0 7E E0 78 E6 C3 A1 
09:29:25:6184 Rx 1 0x740 s 8 22 C1 48 46 28 45 08 47 
09:29:25:6187 Rx 1 0x740 s 8 23 03 1C 03 30 78 25 00 
09:29:25:6188 Rx 1 0x740 s 8 24 10 07 D9 4C 74 40 24 
09:29:25:6191 Rx 1 0x740 s 8 25 C3 30 DA 0C 40 00 03 
09:29:25:6194 Rx 1 0x740 s 8 26 14 80 30 89 E8 E1 40 
09:29:25:6196 Rx 1 0x740 s 8 27 A1 41 C1 42 FA 0B 00 
09:29:25:6198 Rx 1 0x740 s 8 28 00 03 1C 02 30 03 14 
09:29:25:6201 Rx 1 0x740 s 8 29 80 30 C6 C7 E6 C3 A1 
09:29:25:6203 Rx 1 0x740 s 8 2A C1 48 46 28 45 08 47 
09:29:25:6205 Rx 1 0x740 s 8 2B 03 1C 03 30 C3 40 7B 
09:29:25:6208 Rx 1 0x740 s 8 2C 00 54 40 00 88 14 70 
09:29:25:6210 Rx 1 0x740 s 8 2D 0A F4 5C D8 2C 70 0A 
09:29:25:6212 Rx 1 0x740 s 8 2E DA 6C 75 12 0D CF FF 
09:29:25:6215 Rx 1 0x740 s 8 2F 03 1C 43 30 14 F0 78 
09:29:25:6217 Rx 1 0x740 s 8 20 25 00 10 08 D9 4C 74 
09:29:25:6219 Rx 1 0x740 s 8 21 40 24 C3 30 82 0C 40 
09:29:25:6222 Rx 1 0x740 s 8 22 00 03 14 80 30 88 E8 
09:29:25:6224 Rx 1 0x740 s 8 23 E1 40 A1 41 C1 42 2E 
09:29:25:6226 Rx 1 0x740 s 8 24 0C 00 00 03 1C 02 30 
09:29:25:6229 Rx 1 0x740 s 8 25 03 14 80 30 C6 C7 E0 
09:29:25:6231 Rx 1 0x740 s 8 26 78 E2 C3 A1 C1 08 45 
09:29:25:6233 Rx 1 0x740 s 8 27 03 1C 03 30 78 25 00 
09:29:25:6236 Rx 1 0x740 s 8 28 10 10 D9 0A DA 40 24 
09:29:25:6238 Rx 1 0x740 s 8 29 C3 30 4E 0C 40 00 03 
09:29:25:6240 Rx 1 0x740 s 8 2A 14 80 30 8C E8 8B D8 
09:29:25:6243 Rx 1 0x740 s 8 2B 00 B5 5C D8 01 B5 04 
09:29:25:6245 Rx 1 0x740 s 8 2C 1D C3 10 05 1D 03 11 
09:29:25:6247 Rx 1 0x740 s 8 2D 06 1D 03 10 C2 C7 E0 
09:29:25:6250 Rx 1 0x740 s 8 2E 78 F1 C0 C3 42 7B 00 
09:29:25:6252 Rx 1 0x740 s 8 2F 54 40 40 8A 54 70 09 
09:29:25:6254 Rx 1 0x740 s 8 20 F4 5C D8 2C 70 0A DA 
09:29:25:6257 Rx 1 0x740 s 8 21 6C 75 8E 0C CF FF 2C 
09:29:25:6260 Rx 1 0x740 s 8 22 71 04 F0 9E 0C 00 00 
09:29:25:6261 Rx 1 0x740 s 8 23 00 41 2F 78 D1 C0 E0 
09:29:25:6264 Rx 1 0x740 s 8 24 7E E0 78 F1 C0 C3 40 
09:29:25:6267 Rx 1 0x740 s 8 25 7B 00 54 40 00 88 14 
09:29:25:6268 Rx 1 0x740 s 8 26 70 08 F4 5C D8 2C 70 
09:29:25:6271 Rx 1 0x740 s 8 27 4C 76 6C 75 62 0C CF 
09:29:25:6274 Rx 1 0x740 s 8 28 FF 04 F0 AA 0B 40 00 
09:29:25:6276 Rx 1 0x740 s 8 29 D1 C0 E0 7E 20 88 34 
09:29:25:6278 Rx 1 0x740 s 8 2A 71 14 F4 21 88 97 E1 
09:29:25:6280 Rx 1 0x740 s 8 2B 12 F4 C3 42 7B 00 F0 
09:29:25:6283 Rx 1 0x740 s 8 2C 4F 0C 70 91 B8 00 A2 
09:29:25:6285 Rx 1 0x740 s 8 2D 25 B8 01 A2 20 D9 28 
09:29:25:6287 Rx 1 0x740 s 8 2E AA 04 B8 03 A2 D8 D8 
09:29:25:6290 Rx 1 0x740 s 8 2F 10 AA 0C 70 62 F0 20 
09:29:25:6292 Rx 1 0x740 s 8 20 88 8C 21 C3 8B 11 F4 
09:29:25:6295 Rx 1 0x740 s 8 21 21 88 95 E1 0D F4 C3 
09:29:25:6297 Rx 1 0x740 s 8 22 42 7B 00 F0 4F 0C 70 
09:29:25:6299 Rx 1 0x740 s 8 23 96 B8 00 A2 20 D9 28 
09:29:25:6301 Rx 1 0x740 s 8 24 AA 2A B8 01 A2 0C 70 
09:29:25:6304 Rx 1 0x740 s 8 25 4E F0 20 88 8C 21 83 
09:29:25:6306 Rx 1 0x740 s 8 26 80 10 F4 21 88 95 E1 
09:29:25:6308 Rx 1 0x740 s 8 27 0E F4 C3 42 7B 00 F0 
09:29:25:6311 Rx 1 0x740 s 8 28 4F 0C 70 96 B8 00 A2 
09:29:25:6313 Rx 1 0x740 s 8 29 20 D9 28 AA 2A B8 01 
09:29:25:6315 Rx 1 0x740 s 8 2A A2 0C 70 3C F0 20 88 
09:29:25:6318 Rx 1 0x740 s 8 2B 8C 21 42 87 11 F4 21 
09:29:25:6320 Rx 1 0x740 s 8 2C 88 95 E1 0D F4 C3 42 
09:29:25:6322 Rx 1 0x740 s 8 2D 7B 00 F0 4F 0C 70 96 
09:29:25:6325 Rx 1 0x740 s 8 2E B8 00 A2 20 D9 28 AA 
09:29:25:6327 Rx 1 0x740 s 8 2F 2A B8 01 A2 0C 70 28 
09:29:25:6329 Rx 1 0x740 s 8 20 F0 20 88 8C 21 42 87 
09:29:25:6332 Rx 1 0x740 s 8 21 10 F4 21 88 94 E1 0E 
09:29:25:6334 Rx 1 0x740 s 8 22 F4 C3 42 7B 00 F0 4F 
09:29:25:6336 Rx 1 0x740 s 8 23 0C 70 95 B8 00 A2 20 
09:29:25:6339 Rx 1 0x740 s 8 24 D9 28 AA 29 B8 01 A2 
09:29:25:6341 Rx 1 0x740 s 8 25 0C 70 16 F0 20 88 8C 
09:29:25:6343 Rx 1 0x740 s 8 26 21 03 82 11 F4 01 88 
09:29:25:6346 Rx 1 0x740 s 8 27 95 E0 0D F4 C3 42 7B 
09:29:25:6348 Rx 1 0x740 s 8 28 00 F0 4F 0C 70 96 B8 
09:29:25:6350 Rx 1 0x740 s 8 29 00 A2 20 D9 28 AA 2A 
09:29:25:6353 Rx 1 0x740 s 8 2A B8 01 A2 0C 70 02 F0 
09:29:25:6355 Rx 1 0x740 s 8 2B 0C 71 E0 7E E0 78 E4 
09:29:25:6357 Rx 1 0x740 s 8 2C C3 A9 C1 2C 70 20 1C 
09:29:25:6360 Rx 1 0x740 s 8 2D 44 30 47 C1 46 C1 45 
09:29:25:6362 Rx 1 0x740 s 8 2E C1 44 C1 43 C1 42 C1 
09:29:25:6364 Rx 1 0x740 s 8 2F 41 C1 02 1C 44 30 CB 
09:29:25:6367 Rx 1 0x740 s 8 20 45 7B 00 58 40 01 A5 
09:29:25:6369 Rx 1 0x740 s 8 21 07 80 03 A5 01 85 09 
09:29:25:6372 Rx 1 0x740 s 8 22 80 04 A5 00 8D 13 08 
09:29:25:6374 Rx 1 0x740 s 8 23 91 00 5C D8 2C 70 4C 
09:29:25:6376 Rx 1 0x740 s 8 24 70 6C 76 26 0B CF FF 
09:29:25:6379 Rx 1 0x740 s 8 25 2F F0 C3 40 7B 00 B4 
09:29:25:6381 Rx 1 0x740 s 8 26 47 EA 0A 80 00 0C 71 
09:29:25:6384 Rx 1 0x740 s 8 27 2C 70 66 0B 80 00 08 
09:29:25:6386 Rx 1 0x740 s 8 28 46 07 D8 2C 70 81 C2 
09:29:25:6388 Rx 1 0x740 s 8 29 1A DB 02 0C 80 00 05 
09:29:25:6391 Rx 1 0x740 s 8 2A 7E 0C 70 4E 0C 80 00 
09:29:25:6393 Rx 1 0x740 s 8 2B 05 7E 0C 71 40 24 81 
09:29:25:6395 Rx 1 0x740 s 8 2C 30 92 0B 80 00 C5 78 
09:29:25:6398 Rx 1 0x740 s 8 2D 8B E8 40 24 80 30 A5 
09:29:25:6400 Rx 1 0x740 s 8 2E FF 14 70 07 F4 00 1D 
09:29:25:6402 Rx 1 0x740 s 8 2F 43 10 01 1D 03 10 09 
09:29:25:6405 Rx 1 0x740 s 8 20 F0 5C D8 2C 70 4C 70 
09:29:25:6407 Rx 1 0x740 s 8 21 6C 75 CE 0A CF FF 00 
09:29:25:6409 Rx 1 0x740 s 8 22 1D 03 10 C4 C7 E2 C2 
09:29:25:6412 Rx 1 0x740 s 8 23 CB 44 7B 00 F0 4F 40 
09:29:25:6414 Rx 1 0x740 s 8 24 84 50 70 C3 43 7B 00 
09:29:25:6416 Rx 1 0x740 s 8 25 58 40 47 F7 41 84 42 
09:29:25:6419 Rx 1 0x740 s 8 26 A3 48 8C 54 AB 05 F0 
09:29:25:6421 Rx 1 0x740 s 8 27 43 84 42 A3 50 8C 54 
09:29:25:6423 Rx 1 0x740 s 8 28 AB 40 8B 54 70 0A F4 
09:29:25:6426 Rx 1 0x740 s 8 29 AD 71 5C D8 2C 70 4C 
09:29:25:6428 Rx 1 0x740 s 8 2A 71 6C 75 8E 0A CF FF 
09:29:25:6430 Rx 1 0x740 s 8 2B 45 F0 40 8B 54 72 04 
09:29:25:6433 Rx 1 0x740 s 8 2C F2 40 8B 54 73 0A F4 
09:29:25:6435 Rx 1 0x740 s 8 2D AD 71 5C D8 2C 70 4C 
09:29:25:6437 Rx 1 0x740 s 8 2E 71 6C 76 72 0A CF FF 
09:29:25:6439 Rx 1 0x740 s 8 2F 37 F0 42 83 09 28 82 
09:29:25:6442 Rx 1 0x740 s 8 20 00 54 70 05 F4 D3 70 
09:29:25:6444 Rx 1 0x740 s 8 21 3F 00 FF FF 89 F7 AD 
09:29:25:6447 Rx 1 0x740 s 8 22 71 5C D8 2C 70 4C 71 
09:29:25:6449 Rx 1 0x740 s 8 23 6C 72 4E 0A CF FF 25 
09:29:25:6452 Rx 1 0x740 s 8 24 F0 3C 60 42 83 09 2C 
09:29:25:6453 Rx 1 0x740 s 8 25 82 10 54 70 06 F4 3A 
09:29:25:6456 Rx 1 0x740 s 8 26 60 D3 72 40 00 00 00 
09:29:25:6459 Rx 1 0x740 s 8 27 8A F7 AD 71 5C D8 2C 
09:29:25:6460 Rx 1 0x740 s 8 28 70 4C 71 6C 73 2A 0A 
09:29:25:6463 Rx 1 0x740 s 8 29 CF FF 13 F0 C3 42 7B 
09:29:25:6466 Rx 1 0x740 s 8 2A 00 14 50 0C 1A 43 00 
09:29:25:6468 Rx 1 0x740 s 8 2B 00 A2 02 83 05 29 00 
09:29:25:6471 Rx 1 0x740 s 8 2C 00 01 A2 01 82 02 A2 
09:29:25:6473 Rx 1 0x740 s 8 2D 00 1B 83 00 01 1B 83 
09:29:25:6475 Rx 1 0x740 s 8 2E 00 AD 70 A1 40 C2 C6 
09:29:25:6478 Rx 1 0x740 s 8 2F E0 78 F1 C0 CB 44 7B 
09:29:25:6480 Rx 1 0x740 s 8 20 00 58 40 60 8C 74 70 
09:29:25:6482 Rx 1 0x740 s 8 21 09 F4 5C D8 2C 70 4C 
09:29:25:6485 Rx 1 0x740 s 8 22 72 6C 75 E6 09 CF FF 
09:29:25:6487 Rx 1 0x740 s 8 23 0C 71 3C F0 60 8C 74 
09:29:25:6489 Rx 1 0x740 s 8 24 72 05 F2 60 8C 74 73 
09:29:25:6491 Rx 1 0x740 s 8 25 09 F4 5C D8 2C 70 4C 
09:29:25:6494 Rx 1 0x740 s 8 26 72 6C 76 CA 09 CF FF 
09:29:25:6496 Rx 1 0x740 s 8 27 0C 71 2E F0 0F 7B 74 
09:29:25:6498 Rx 1 0x740 s 8 28 70 06 F4 D3 70 3F 00 
09:29:25:6501 Rx 1 0x740 s 8 29 FF FF 8A F7 5C D8 2C 
09:29:25:6503 Rx 1 0x740 s 8 2A 70 4C 72 6C 72 AA 09 
09:29:25:6505 Rx 1 0x740 s 8 2B CF FF 0C 71 20 F0 5B 
09:29:25:6508 Rx 1 0x740 s 8 2C 60 6F 7B 74 70 07 F4 
09:29:25:6510 Rx 1 0x740 s 8 2D 5B 60 D3 73 40 00 00 
09:29:25:6512 Rx 1 0x740 s 8 2E 00 89 F7 5C D8 2C 70 
09:29:25:6515 Rx 1 0x740 s 8 2F 4C 72 6C 73 8A 09 CF 
09:29:25:6517 Rx 1 0x740 s 8 20 FF 0C 71 0E F0 C3 43 
09:29:25:6520 Rx 1 0x740 s 8 21 7B 00 34 50 0C 1B 43 
09:29:25:6522 Rx 1 0x740 s 8 22 00 00 A3 22 A3 41 A3 
09:29:25:6524 Rx 1 0x740 s 8 23 00 1C 83 10 01 1C 83 
09:29:25:6527 Rx 1 0x740 s 8 24 10 0C 70 D1 C0 E0 7E 
09:29:25:6529 Rx 1 0x740 s 8 25 C3 40 7B 00 58 40 00 
09:29:25:6532 Rx 1 0x740 s 8 26 88 E0 7E E0 78 C3 40 
09:29:25:6534 Rx 1 0x740 s 8 27 7B 00 59 40 00 88 E0 
09:29:25:6536 Rx 1 0x740 s 8 28 7E E0 78 F1 C0 CB 44 
09:29:25:6539 Rx 1 0x740 s 8 29 7B 00 58 40 60 8C 74 
09:29:25:6541 Rx 1 0x740 s 8 2A 70 09 F4 5C D8 2C 70 
09:29:25:6543 Rx 1 0x740 s 8 2B 07 DA 6C 75 36 09 CF 
09:29:25:6546 Rx 1 0x740 s 8 2C FF 0C 71 35 F0 60 8C 
09:29:25:6548 Rx 1 0x740 s 8 2D 74 72 05 F2 60 8C 74 
09:29:25:6550 Rx 1 0x740 s 8 2E 73 09 F4 5C D8 2C 70 
09:29:25:6553 Rx 1 0x740 s 8 2F 07 DA 6C 76 1A 09 CF 
09:29:25:6555 Rx 1 0x740 s 8 20 FF 0C 71 27 F0 D3 70 
09:29:25:6557 Rx 1 0x740 s 8 21 3F 00 FF FF 89 F7 5C 
09:29:25:6560 Rx 1 0x740 s 8 22 D8 2C 70 07 DA 6C 72 
09:29:25:6562 Rx 1 0x740 s 8 23 02 09 CF FF 0C 71 1B 
09:29:25:6564 Rx 1 0x740 s 8 24 F0 5B 60 D3 73 40 00 
09:29:25:6628 Rx 1 0x748 s 8 02 76 01 FF FF FF FF FF 
09:29:25:6643 Rx 1 0x740 s 8 18 02 36 02 00 00 8A F7 
09:29:25:6748 Rx 1 0x748 s 8 30 00 00 FF FF FF FF FF 
09:29:25:6764 Rx 1 0x740 s 8 21 5C D8 2C 70 07 DA 6C 
09:29:25:6766 Rx 1 0x740 s 8 22 73 E6 08 CF FF 0C 71 
09:29:25:6768 Rx 1 0x740 s 8 23 0F F0 C3 43 7B 00 24 
09:29:25:6771 Rx 1 0x740 s 8 24 50 0C 1B 43 00 00 A3 
09:29:25:6773 Rx 1 0x740 s 8 25 22 A3 41 A3 00 1C 83 
09:29:25:6775 Rx 1 0x740 s 8 26 10 01 1C 83 10 0C 70 
09:29:25:6778 Rx 1 0x740 s 8 27 D1 C0 E0 7E E0 78 F1 
09:29:25:6780 Rx 1 0x740 s 8 28 C0 CB 44 7B 00 58 40 
09:29:25:6782 Rx 1 0x740 s 8 29 60 8C 74 70 09 F4 5C 
09:29:25:6785 Rx 1 0x740 s 8 2A D8 2C 70 08 DA 6C 75 
09:29:25:6788 Rx 1 0x740 s 8 2B AA 08 CF FF 0C 71 35 
09:29:25:6789 Rx 1 0x740 s 8 2C F0 60 8C 74 72 05 F2 
09:29:25:6792 Rx 1 0x740 s 8 2D 60 8C 74 73 09 F4 5C 
09:29:25:6794 Rx 1 0x740 s 8 2E D8 2C 70 08 DA 6C 76 
09:29:25:6796 Rx 1 0x740 s 8 2F 8E 08 CF FF 0C 71 27 
09:29:25:6799 Rx 1 0x740 s 8 20 F0 D3 70 3F 00 FF FF 
09:29:25:6802 Rx 1 0x740 s 8 21 89 F7 5C D8 2C 70 08 
09:29:25:6804 Rx 1 0x740 s 8 22 DA 6C 72 76 08 CF FF 
09:29:25:6806 Rx 1 0x740 s 8 23 0C 71 1B F0 5B 60 D3 
09:29:25:6809 Rx 1 0x740 s 8 24 73 40 00 00 00 8A F7 
09:29:25:6811 Rx 1 0x740 s 8 25 5C D8 2C 70 08 DA 6C 
09:29:25:6813 Rx 1 0x740 s 8 26 73 5A 08 CF FF 0C 71 
09:29:25:6816 Rx 1 0x740 s 8 27 0F F0 C3 43 7B 00 04 
09:29:25:6818 Rx 1 0x740 s 8 28 50 0C 1B 43 00 00 A3 
09:29:25:6820 Rx 1 0x740 s 8 29 22 A3 41 A3 00 1C 83 
09:29:25:6823 Rx 1 0x740 s 8 2A 10 01 1C 83 10 0C 70 
09:29:25:6825 Rx 1 0x740 s 8 2B D1 C0 E0 7E E0 78 F1 
09:29:25:6827 Rx 1 0x740 s 8 2C C0 C3 42 7B 00 58 40 
09:29:25:6830 Rx 1 0x740 s 8 2D 20 8A 34 72 04 F2 20 
09:29:25:6832 Rx 1 0x740 s 8 2E 8A 34 73 09 F4 5C D8 
09:29:25:6834 Rx 1 0x740 s 8 2F 2C 70 09 DA 6C 76 16 
09:29:25:6836 Rx 1 0x740 s 8 20 08 CF FF 12 F0 14 70 
09:29:25:6839 Rx 1 0x740 s 8 21 0A F2 14 71 0E F4 01 
09:29:25:6841 Rx 1 0x740 s 8 22 82 06 80 03 A2 01 82 
09:29:25:6844 Rx 1 0x740 s 8 23 08 80 04 A2 08 F0 01 
09:29:25:6847 Rx 1 0x740 s 8 24 82 07 80 03 A2 01 82 
09:29:25:6850 Rx 1 0x740 s 8 25 09 80 04 A2 D1 C0 E0 
09:29:25:6852 Rx 1 0x740 s 8 26 7E F1 C0 C3 43 7B 00 
09:29:25:6854 Rx 1 0x740 s 8 27 58 40 40 8B 54 70 09 
09:29:25:6857 Rx 1 0x740 s 8 28 F4 5C D8 2C 70 0A DA 
09:29:25:6859 Rx 1 0x740 s 8 29 6C 75 D6 0F 8F FF 0C 
09:29:25:6861 Rx 1 0x740 s 8 2A 71 34 F0 40 8B 54 72 
09:29:25:6864 Rx 1 0x740 s 8 2B 05 F2 40 8B 54 73 09 
09:29:25:6866 Rx 1 0x740 s 8 2C F4 5C D8 2C 70 0A DA 
09:29:25:6868 Rx 1 0x740 s 8 2D 6C 76 BA 0F 8F FF 0C 
09:29:25:6871 Rx 1 0x740 s 8 2E 71 26 F0 D3 70 3F 00 
09:29:25:6873 Rx 1 0x740 s 8 2F FF FF 89 F7 5C D8 2C 
09:29:25:6875 Rx 1 0x740 s 8 20 70 0A DA 6C 72 A2 0F 
09:29:25:6878 Rx 1 0x740 s 8 21 8F FF 0C 71 1A F0 3A 
09:29:25:6880 Rx 1 0x740 s 8 22 60 D3 72 40 00 00 00 
09:29:25:6882 Rx 1 0x740 s 8 23 8A F7 5C D8 2C 70 0A 
09:29:25:6885 Rx 1 0x740 s 8 24 DA 6C 73 86 0F 8F FF 
09:29:25:6887 Rx 1 0x740 s 8 25 0C 71 0E F0 C3 42 7B 
09:29:25:6889 Rx 1 0x740 s 8 26 00 44 50 08 1A 43 00 
09:29:25:6892 Rx 1 0x740 s 8 27 00 A2 21 A2 00 1B 83 
09:29:25:6894 Rx 1 0x740 s 8 28 00 01 1B 83 00 0C 70 
09:29:25:6896 Rx 1 0x740 s 8 29 D1 C0 E0 7E E4 C2 08 
09:29:25:6899 Rx 1 0x740 s 8 2A 46 0C 74 2C 70 AE 0F 
09:29:25:6901 Rx 1 0x740 s 8 2B 40 00 08 45 07 D8 A2 
09:29:25:6903 Rx 1 0x740 s 8 2C 08 80 00 05 7D 0C 74 
09:29:25:6906 Rx 1 0x740 s 8 2D C1 41 EA 0F 40 00 A5 
09:29:25:6908 Rx 1 0x740 s 8 2E 78 C4 C6 E0 78 F1 C0 
09:29:25:6910 Rx 1 0x740 s 8 2F 0C 70 2C 70 8E 0F 40 
09:29:25:6913 Rx 1 0x740 s 8 20 00 0C 76 82 08 80 00 
09:29:25:6916 Rx 1 0x740 s 8 21 D1 C0 E0 7E F1 C0 C3 
09:29:25:6918 Rx 1 0x740 s 8 22 40 7B 00 58 40 21 80 
09:29:25:6920 Rx 1 0x740 s 8 23 34 70 16 F2 C3 41 7B 
09:29:25:6923 Rx 1 0x740 s 8 24 00 58 40 21 89 34 70 
09:29:25:6924 Rx 1 0x740 s 8 25 09 F4 21 80 24 81 34 
09:29:25:6927 Rx 1 0x740 s 8 26 70 04 F2 01 80 04 80 
09:29:25:6930 Rx 1 0x740 s 8 27 40 78 08 F0 21 80 25 
09:29:25:6932 Rx 1 0x740 s 8 28 81 34 70 04 F2 01 80 
09:29:25:6935 Rx 1 0x740 s 8 29 05 80 40 78 D1 C0 E0 
09:29:25:6937 Rx 1 0x740 s 8 2A 7E 08 44 0C 70 4C 70 
09:29:25:6939 Rx 1 0x740 s 8 2B 50 7B 30 73 47 F6 50 
09:29:25:6942 Rx 1 0x740 s 8 2C 7B 6B 64 78 60 44 71 
09:29:25:6944 Rx 1 0x740 s 8 2D F9 F1 E0 7E EC C3 82 
09:29:25:6946 Rx 1 0x740 s 8 2E 24 04 30 30 40 08 47 
09:29:25:6949 Rx 1 0x740 s 8 2F 4E 70 80 C0 2C 70 8A 
09:29:25:6951 Rx 1 0x740 s 8 20 22 04 00 F2 0F 00 01 
09:29:25:6953 Rx 1 0x740 s 8 21 2F 21 C7 23 36 70 11 
09:29:25:6956 Rx 1 0x740 s 8 22 F2 8A 20 04 00 02 20 
09:29:25:6958 Rx 1 0x740 s 8 23 40 04 0C 20 00 A0 86 
09:29:25:6960 Rx 1 0x740 s 8 24 F7 8A 20 04 00 02 20 
09:29:25:6963 Rx 1 0x740 s 8 25 4E 04 03 F0 0A 46 2E 
09:29:25:6965 Rx 1 0x740 s 8 26 70 08 F0 8C 20 04 A0 
09:29:25:6967 Rx 1 0x740 s 8 27 85 F7 8A 26 04 10 02 
09:29:25:6970 Rx 1 0x740 s 8 28 F0 0A 46 C3 40 7B 00 
09:29:25:6972 Rx 1 0x740 s 8 29 C4 47 20 80 40 19 D8 
09:29:25:6974 Rx 1 0x740 s 8 2A 03 D0 7D 00 80 42 18 
09:29:25:6977 Rx 1 0x740 s 8 2B 58 03 0C 76 2C 70 80 
09:29:25:6980 Rx 1 0x740 s 8 2C C2 A1 43 6A 0F 40 00 
09:29:25:6981 Rx 1 0x740 s 8 2D 05 22 12 20 0C 73 B6 
09:29:25:6984 Rx 1 0x740 s 8 2E 0F 40 00 05 22 12 20 
09:29:25:6987 Rx 1 0x740 s 8 2F 2F 22 87 24 BF 67 02 
09:29:25:6988 Rx 1 0x740 s 8 20 20 50 23 41 0A 11 20 
09:29:25:6991 Rx 1 0x740 s 8 21 D0 78 8C 20 04 80 0D 
09:29:25:6994 Rx 1 0x740 s 8 22 F4 80 C0 8A 21 04 00 
09:29:25:6996 Rx 1 0x740 s 8 23 D5 FF D3 70 00 00 00 
09:29:25:6998 Rx 1 0x740 s 8 24 FF 04 F2 4E 71 16 F0 
09:29:25:7001 Rx 1 0x740 s 8 25 0F F0 0C 70 D0 79 30 
09:29:25:7003 Rx 1 0x740 s 8 26 70 82 F7 0B F0 80 C1 
09:29:25:7005 Rx 1 0x740 s 8 27 09 61 8C 21 C3 8F 03 
09:29:25:7008 Rx 1 0x740 s 8 28 F2 4E 71 03 F0 04 71 
09:29:25:7010 Rx 1 0x740 s 8 29 F4 F1 04 F0 4E 71 04 
09:29:25:7012 Rx 1 0x740 s 8 2A F0 16 70 AA F5 42 40 
09:29:25:7015 Rx 1 0x740 s 8 2B CC C7 E8 C3 A2 C1 07 
09:29:25:7017 Rx 1 0x740 s 8 2C 1C 03 30 00 1C 01 30 
09:29:25:7019 Rx 1 0x740 s 8 2D 40 24 C0 31 A5 FF 14 
09:29:25:7022 Rx 1 0x740 s 8 2E 70 CB 46 7B 00 58 40 
09:29:25:7024 Rx 1 0x740 s 8 2F CB 45 7B 00 14 50 7A 
09:29:25:7027 Rx 1 0x740 s 8 20 F4 07 14 80 30 C0 B8 
09:29:25:7029 Rx 1 0x740 s 8 21 14 70 06 F2 40 24 C0 
09:29:25:7031 Rx 1 0x740 s 8 22 31 9D FF F9 F1 CB 47 
09:29:25:7033 Rx 1 0x740 s 8 23 7B 00 C0 47 01 85 14 
09:29:25:7036 Rx 1 0x740 s 8 24 70 54 F2 01 85 04 77 
09:29:25:7038 Rx 1 0x740 s 8 25 01 A5 20 85 01 85 08 
09:29:25:7040 Rx 1 0x740 s 8 26 16 10 10 1A 20 10 04 
09:29:25:7043 Rx 1 0x740 s 8 27 00 20 50 20 9D FF 40 
09:29:25:7045 Rx 1 0x740 s 8 28 24 C0 31 92 FF 07 14 
09:29:25:7048 Rx 1 0x740 s 8 29 81 30 44 21 81 00 34 
09:29:25:7050 Rx 1 0x740 s 8 2A 70 30 F2 0F 78 14 70 
09:29:25:7052 Rx 1 0x740 s 8 2B 2E F4 00 87 3A 18 03 
09:29:25:7055 Rx 1 0x740 s 8 2C 00 20 D8 60 C0 41 28 
09:29:25:7057 Rx 1 0x740 s 8 2D 00 24 01 1C 02 30 41 
09:29:25:7060 Rx 1 0x740 s 8 2E 28 00 22 02 1C 02 30 
09:29:25:7062 Rx 1 0x740 s 8 2F 03 1C 02 34 0C 75 80 
09:29:25:7065 Rx 1 0x740 s 8 20 C1 CA 0D 40 00 08 D8 
09:29:25:7067 Rx 1 0x740 s 8 21 BE 0E 40 00 00 87 3A 
09:29:25:7069 Rx 1 0x740 s 8 22 18 43 00 40 24 C0 31 
09:29:25:7072 Rx 1 0x740 s 8 23 80 FF 07 14 80 30 C0 
09:29:25:7074 Rx 1 0x740 s 8 24 B8 14 70 05 F2 40 24 
09:29:25:7076 Rx 1 0x740 s 8 25 C0 31 7C FF F8 F1 01 
09:29:25:7079 Rx 1 0x740 s 8 26 1E 03 10 0C 1D 03 10 
09:29:25:7081 Rx 1 0x740 s 8 27 00 1E 43 10 0F F0 5C 
09:29:25:7083 Rx 1 0x740 s 8 28 D8 2C 70 4C 71 6C 71 
09:29:25:7086 Rx 1 0x740 s 8 29 42 0D 8F FF 01 1E 43 
09:29:25:7088 Rx 1 0x740 s 8 2A 10 0C 1D 03 10 00 1E 
09:29:25:7091 Rx 1 0x740 s 8 2B 43 10 7F FF AD F1 00 
09:29:25:7093 Rx 1 0x740 s 8 2C 85 22 85 42 86 4C 79 
09:29:25:7095 Rx 1 0x740 s 8 2D 91 FF 14 70 04 F4 01 
09:29:25:7098 Rx 1 0x740 s 8 2E 1E 03 10 0A F0 5C D8 
09:29:25:7100 Rx 1 0x740 s 8 2F 2C 70 4C 71 07 DB 12 
09:29:25:7102 Rx 1 0x740 s 8 20 0D 8F FF 01 1E 43 10 
09:29:25:7105 Rx 1 0x740 s 8 21 0C 1D 03 10 00 1E 43 
09:29:25:7107 Rx 1 0x740 s 8 22 10 73 FF 0F F0 5C D8 
09:29:25:7109 Rx 1 0x740 s 8 23 2C 70 4C 71 6C 71 F6 
09:29:25:7112 Rx 1 0x740 s 8 24 0C 8F FF 01 1E 43 10 
09:29:25:7115 Rx 1 0x740 s 8 25 0C 1D 03 10 00 1E 43 
09:29:25:7116 Rx 1 0x740 s 8 26 10 6C FF C8 C7 F4 C3 
09:29:25:7119 Rx 1 0x740 s 8 27 82 24 04 31 56 24 00 
09:29:25:7122 Rx 1 0x740 s 8 28 38 03 18 03 00 CB 47 
09:29:25:7124 Rx 1 0x740 s 8 29 7B 00 34 50 00 87 21 
09:29:25:7126 Rx 1 0x740 s 8 2A 87 7A FF 14 70 D3 43 
09:29:25:7128 Rx 1 0x740 s 8 2B 7B 00 58 40 CE F4 5D 
09:29:25:7131 Rx 1 0x740 s 8 2C FF 00 24 80 3F 00 00 
09:29:25:7133 Rx 1 0x740 s 8 2D 03 01 52 FF 10 42 56 
09:29:25:7136 Rx 1 0x740 s 8 2E 70 BB F4 32 24 80 3F 
09:29:25:7138 Rx 1 0x740 s 8 2F 00 00 03 01 44 20 80 
09:29:25:7140 Rx 1 0x740 s 8 20 00 14 70 B3 F2 C0 87 
09:29:25:7143 Rx 1 0x740 s 8 21 A1 87 08 17 11 10 2F 
09:29:25:7145 Rx 1 0x740 s 8 22 20 87 23 D3 46 7B 00 
09:29:25:7147 Rx 1 0x740 s 8 23 B4 47 16 70 10 F2 8A 
09:29:25:7150 Rx 1 0x740 s 8 24 20 04 00 02 20 00 04 
09:29:25:7152 Rx 1 0x740 s 8 25 10 75 87 F7 8A 20 04 
09:29:25:7154 Rx 1 0x740 s 8 26 00 02 20 14 04 02 F0 
09:29:25:7157 Rx 1 0x740 s 8 27 B1 44 0E 70 09 F0 8C 
09:29:25:7159 Rx 1 0x740 s 8 28 25 04 90 84 F7 8A 24 
09:29:25:7161 Rx 1 0x740 s 8 29 04 20 03 F0 B1 44 45 
09:29:25:7164 Rx 1 0x740 s 8 2A FF C6 44 D8 18 80 03 
09:29:25:7166 Rx 1 0x740 s 8 2B 2F 23 08 05 08 D8 22 
09:29:25:7169 Rx 1 0x740 s 8 2C 41 4C 70 3A 0D 40 00 
09:29:25:7171 Rx 1 0x740 s 8 2D 05 22 12 20 0C 72 86 
09:29:25:7173 Rx 1 0x740 s 8 2E 0D 40 00 05 22 12 20 
09:29:25:7176 Rx 1 0x740 s 8 2F 00 24 80 3F 00 00 03 
09:29:25:7178 Rx 1 0x740 s 8 20 01 31 FF 32 24 80 3F 
09:29:25:7180 Rx 1 0x740 s 8 21 00 00 03 01 C0 B8 08 
09:29:25:7183 Rx 1 0x740 s 8 22 E8 00 24 80 3F 00 00 
09:29:25:7185 Rx 1 0x740 s 8 23 03 01 2B FF F6 F1 2F 
09:29:25:7188 Rx 1 0x740 s 8 24 20 08 05 1E 66 02 7D 
09:29:25:7190 Rx 1 0x740 s 8 25 00 21 11 20 B5 70 C0 
09:29:25:7192 Rx 1 0x740 s 8 26 F5 2F 20 87 04 14 70 
09:29:25:7195 Rx 1 0x740 s 8 27 5C F4 2E 70 01 1B 03 
09:29:25:7197 Rx 1 0x740 s 8 28 20 C0 87 A1 87 2F 20 
09:29:25:7199 Rx 1 0x740 s 8 29 87 23 16 70 0F F2 8A 
09:29:25:7202 Rx 1 0x740 s 8 2A 20 04 00 02 20 00 04 
09:29:25:7204 Rx 1 0x740 s 8 2B 10 75 86 F7 8A 20 04 
09:29:25:7207 Rx 1 0x740 s 8 2C 00 02 20 14 04 03 F0 
09:29:25:7209 Rx 1 0x740 s 8 2D B1 44 0E 70 08 F0 8C 
09:29:25:7211 Rx 1 0x740 s 8 2E 25 04 90 85 F7 8A 24 
09:29:25:7214 Rx 1 0x740 s 8 2F 04 20 02 F0 B1 44 C6 
09:29:25:7216 Rx 1 0x740 s 8 20 44 40 18 98 03 2F 25 
09:29:25:7218 Rx 1 0x740 s 8 21 08 25 C6 44 42 18 58 
09:29:25:7220 Rx 1 0x740 s 8 22 05 0C 76 2C 70 80 C2 
09:29:25:7223 Rx 1 0x740 s 8 23 A2 43 9A 0C 40 00 05 
09:29:25:7225 Rx 1 0x740 s 8 24 22 12 20 0C 73 E6 0C 
09:29:25:7227 Rx 1 0x740 s 8 25 40 00 05 20 80 04 2F 
09:29:25:7230 Rx 1 0x740 s 8 26 22 07 20 A2 76 02 25 
09:29:25:7232 Rx 1 0x740 s 8 27 4D 15 2D 0A 11 20 02 
09:29:25:7234 Rx 1 0x740 s 8 28 87 22 70 2F 21 08 05 
09:29:25:7237 Rx 1 0x740 s 8 29 22 FF 08 43 80 C0 21 
09:29:25:7239 Rx 1 0x740 s 8 2A FF 0C 23 00 90 06 F4 
09:29:25:7241 Rx 1 0x740 s 8 2B 2F 20 08 05 00 21 11 
09:29:25:7244 Rx 1 0x740 s 8 2C 20 05 F0 01 1B 43 20 
09:29:25:7246 Rx 1 0x740 s 8 2D 0D F0 0B F0 5C D8 2C 
09:29:25:7249 Rx 1 0x740 s 8 2E 70 4C 72 08 DB 5A 0B 
09:29:25:7251 Rx 1 0x740 s 8 2F 8F FF 01 1B 43 20 03 
09:29:25:7253 Rx 1 0x740 s 8 20 F0 B5 70 AF F5 0A F0 
09:29:25:7256 Rx 1 0x740 s 8 21 5C D8 2C 70 4C 72 6C 
09:29:25:7258 Rx 1 0x740 s 8 22 72 42 0B 8F FF 01 1B 
09:29:25:7260 Rx 1 0x740 s 8 23 43 20 09 F0 5C D8 2C 
09:29:25:7263 Rx 1 0x740 s 8 24 70 4C 72 6C 72 32 0B 
09:29:25:7265 Rx 1 0x740 s 8 25 8F FF 01 1B 43 20 0A 
09:29:25:7268 Rx 1 0x740 s 8 26 F0 5C D8 2C 70 4C 72 
09:29:25:7270 Rx 1 0x740 s 8 27 07 DB 1E 0B 8F FF 01 
09:29:25:7272 Rx 1 0x740 s 8 28 1B 43 20 0C 1F 03 10 
09:29:25:7275 Rx 1 0x740 s 8 29 00 1B 43 20 F6 FE D4 
09:29:25:7277 Rx 1 0x740 s 8 2A C7 EE C2 D3 41 7B 00 
09:29:25:7279 Rx 1 0x740 s 8 2B 24 50 00 11 0F 20 04 
09:29:25:7282 Rx 1 0x740 s 8 2C 11 0E 20 08 11 12 20 
09:29:25:7284 Rx 1 0x740 s 8 2D 2F 20 C7 23 6E 70 16 
09:29:25:7286 Rx 1 0x740 s 8 2E 70 0F F2 8A 20 04 00 
09:29:25:7289 Rx 1 0x740 s 8 2F 02 20 00 04 10 76 86 
09:29:25:7291 Rx 1 0x740 s 8 20 F7 8A 20 04 00 02 20 
09:29:25:7294 Rx 1 0x740 s 8 21 00 04 03 F0 C1 40 0E 
09:29:25:7296 Rx 1 0x740 s 8 22 70 08 F0 8C 26 04 90 
09:29:25:7298 Rx 1 0x740 s 8 23 85 F7 8A 20 04 00 02 
09:29:25:7301 Rx 1 0x740 s 8 24 F0 C1 40 C3 41 7B 00 
09:29:25:7303 Rx 1 0x740 s 8 25 C4 47 40 81 40 1A D8 
09:29:25:7305 Rx 1 0x740 s 8 26 03 10 7D 00 81 42 18 
09:29:25:7308 Rx 1 0x740 s 8 27 58 03 0C 76 2C 70 42 
09:29:25:7310 Rx 1 0x740 s 8 28 42 A1 43 96 0B 40 00 
09:29:25:7312 Rx 1 0x740 s 8 29 05 23 13 20 0C 73 E2 
09:29:25:7315 Rx 1 0x740 s 8 2A 0B 40 00 05 23 13 20 
09:29:25:7317 Rx 1 0x740 s 8 2B 2F 23 C7 24 BF 67 A2 
09:29:25:7319 Rx 1 0x740 s 8 2C 7E 00 22 52 23 CB 45 
09:29:25:7322 Rx 1 0x740 s 8 2D 7B 00 58 40 0B 0B 11 
09:29:25:7324 Rx 1 0x740 s 8 2E 20 01 1D 03 10 0A F0 
09:29:25:7326 Rx 1 0x740 s 8 2F 5C D8 2C 70 07 DA 6C 
09:29:25:7329 Rx 1 0x740 s 8 20 73 72 0A 8F FF 01 1D 
09:29:25:7331 Rx 1 0x740 s 8 21 43 10 04 F0 D5 70 BB 
09:29:25:7333 Rx 1 0x740 s 8 22 F5 0C 19 03 20 00 1D 
09:29:25:7336 Rx 1 0x740 s 8 23 43 10 C9 FE CE C6 E8 
09:29:25:7339 Rx 1 0x740 s 8 24 C3 A1 C1 CD 70 03 1C 
09:29:25:7340 Rx 1 0x740 s 8 25 82 33 AD 70 CB 47 7B 
09:29:25:7343 Rx 1 0x740 s 8 26 00 04 50 D3 40 7B 00 
09:29:25:7346 Rx 1 0x740 s 8 27 58 40 B0 79 01 87 10 
09:29:25:7348 Rx 1 0x740 s 8 28 71 6A 00 06 00 20 87 
09:29:25:7350 Rx 1 0x740 s 8 29 B0 78 1A 61 C3 40 7B 
09:29:25:7353 Rx 1 0x740 s 8 2A 00 C4 47 20 80 40 19 
09:29:25:7355 Rx 1 0x740 s 8 2B 98 00 00 80 42 18 59 
09:29:25:7357 Rx 1 0x740 s 8 2C 00 0C 76 2C 70 40 24 
09:29:25:7360 Rx 1 0x740 s 8 2D C2 30 6C 71 02 0B 40 
09:29:25:7362 Rx 1 0x740 s 8 2E 00 05 7E 0C 73 4E 0B 
09:29:25:7364 Rx 1 0x740 s 8 2F 40 00 05 7E CF 7E 8C 
09:29:25:7367 Rx 1 0x740 s 8 20 EE 22 87 B0 78 09 61 
09:29:25:7369 Rx 1 0x740 s 8 21 03 14 80 30 10 71 05 
09:29:25:7371 Rx 1 0x740 s 8 22 F2 01 18 03 21 0F F0 
09:29:25:7374 Rx 1 0x740 s 8 23 0B F0 5C D8 2C 70 08 
09:29:25:7376 Rx 1 0x740 s 8 24 DA 6C 74 E2 09 8F FF 
09:29:25:7378 Rx 1 0x740 s 8 25 01 18 43 20 05 F0 01 
09:29:25:7381 Rx 1 0x740 s 8 26 18 03 20 A5 71 CA F1 
09:29:25:7383 Rx 1 0x740 s 8 27 0C 1F 03 10 00 18 43 
09:29:25:7386 Rx 1 0x740 s 8 28 20 A5 FE C8 C7 E0 78 
09:29:25:7388 Rx 1 0x740 s 8 29 EE C3 82 24 04 30 6E 
09:29:25:7390 Rx 1 0x740 s 8 2A 70 80 C0 2C 70 8A 22 
09:29:25:7393 Rx 1 0x740 s 8 2B 04 00 D6 0A 00 01 D3 
09:29:25:7395 Rx 1 0x740 s 8 2C 41 7B 00 44 50 00 11 
09:29:25:7397 Rx 1 0x740 s 8 2D 0E 20 04 11 10 20 CF 
09:29:25:7400 Rx 1 0x740 s 8 2E 7F F5 70 0F F2 8A 20 
09:29:25:7403 Rx 1 0x740 s 8 2F 04 00 E2 78 0C 20 00 
09:29:25:7404 Rx 1 0x740 s 8 20 A0 86 F7 8A 20 04 00 
09:29:25:7407 Rx 1 0x740 s 8 21 F5 48 03 F0 0A 45 ED 
09:29:25:7410 Rx 1 0x740 s 8 22 70 08 F0 8C 20 04 A0 
09:29:25:7412 Rx 1 0x740 s 8 23 85 F7 8A 25 04 10 02 
09:29:25:7414 Rx 1 0x740 s 8 24 F0 0A 45 C3 40 7B 00 
09:29:25:7417 Rx 1 0x740 s 8 25 C4 47 20 80 40 19 98 
09:29:25:7419 Rx 1 0x740 s 8 26 03 2F 22 48 23 00 80 
09:29:25:7421 Rx 1 0x740 s 8 27 42 18 98 04 0C 76 2C 
09:29:25:7424 Rx 1 0x740 s 8 28 70 80 C2 42 43 46 0A 
09:29:25:7426 Rx 1 0x740 s 8 29 40 00 05 23 13 20 0C 
09:29:25:7428 Rx 1 0x740 s 8 2A 73 8E 0A 40 00 05 23 
09:29:25:7431 Rx 1 0x740 s 8 2B 13 20 2F 23 C7 24 42 
09:29:25:7433 Rx 1 0x740 s 8 2C 76 02 20 90 24 D3 42 
09:29:25:7435 Rx 1 0x740 s 8 2D 7B 00 58 40 51 0B 11 
09:29:25:7438 Rx 1 0x740 s 8 2E 20 B0 78 8C 20 04 80 
09:29:25:7440 Rx 1 0x740 s 8 2F 11 F4 80 C0 8A 21 04 
09:29:25:7442 Rx 1 0x740 s 8 20 00 8A FE D3 70 00 00 
09:29:25:7445 Rx 1 0x740 s 8 21 00 FF 05 F4 01 1A 03 
09:29:25:7447 Rx 1 0x740 s 8 22 20 04 F0 01 1A 03 21 
09:29:25:7449 Rx 1 0x740 s 8 23 21 F0 13 F0 4C 70 50 
09:29:25:7452 Rx 1 0x740 s 8 24 79 B0 78 10 71 4F F6 
09:29:25:7509 Rx 1 0x748 s 8 02 76 02 FF FF FF FF FF 
09:29:25:7540 Rx 1 0x740 s 8 18 02 36 03 50 79 80 C0 
09:29:25:7629 Rx 1 0x748 s 8 30 00 00 FF FF FF FF FF 
09:29:25:7644 Rx 1 0x740 s 8 21 28 60 8C 20 C3 8F 05 
09:29:25:7647 Rx 1 0x740 s 8 22 F2 01 1A 03 21 05 F0 
09:29:25:7649 Rx 1 0x740 s 8 23 01 1A 03 20 44 71 F0 
09:29:25:7652 Rx 1 0x740 s 8 24 F1 0B F0 5C D8 2C 70 
09:29:25:7654 Rx 1 0x740 s 8 25 0A DA 07 DB DA 08 8F 
09:29:25:7656 Rx 1 0x740 s 8 26 FF 01 1A 43 20 03 F0 
09:29:25:7659 Rx 1 0x740 s 8 27 16 70 98 F5 08 19 03 
09:29:25:7661 Rx 1 0x740 s 8 28 20 00 1A 43 20 64 FE 
09:29:25:7664 Rx 1 0x740 s 8 29 CE C7 E0 78 E4 C2 CB 
09:29:25:7666 Rx 1 0x740 s 8 2A 46 7B 00 10 50 10 8E 
09:29:25:7668 Rx 1 0x740 s 8 2B 14 71 02 F4 A8 FE CB 
09:29:25:7671 Rx 1 0x740 s 8 2C 45 7B 00 30 50 10 8D 
09:29:25:7673 Rx 1 0x740 s 8 2D 14 71 03 F4 F0 FE 00 
09:29:25:7675 Rx 1 0x740 s 8 2E 8D 14 71 03 F4 64 FF 
09:29:25:7678 Rx 1 0x740 s 8 2F 00 8E 14 71 03 F4 8F 
09:29:25:7680 Rx 1 0x740 s 8 20 FF 1C 8D 14 71 03 F4 
09:29:25:7682 Rx 1 0x740 s 8 21 B2 FF C4 C6 E2 C2 68 
09:29:25:7685 Rx 1 0x740 s 8 22 45 40 43 20 42 14 71 
09:29:25:7687 Rx 1 0x740 s 8 23 0B F4 00 8D 14 70 07 
09:29:25:7689 Rx 1 0x740 s 8 24 F4 5C D8 2C 70 66 08 
09:29:25:7692 Rx 1 0x740 s 8 25 8F FF 00 1D 43 10 C2 
09:29:25:7694 Rx 1 0x740 s 8 26 C6 20 8B 34 70 05 F4 
09:29:25:7696 Rx 1 0x740 s 8 27 14 70 03 F4 00 1B 43 
09:29:25:7699 Rx 1 0x740 s 8 28 00 E0 7E F8 1C C8 B7 
09:29:25:7701 Rx 1 0x740 s 8 29 08 44 07 1C 03 30 79 
09:29:25:7703 Rx 1 0x740 s 8 2A 24 00 10 2C 70 10 DA 
09:29:25:7708 Rx 1 0x740 s 8 2B 40 24 C3 31 F7 FF 07 
09:29:25:7710 Rx 1 0x740 s 8 2C 14 80 30 89 E8 81 40 
09:29:25:7713 Rx 1 0x740 s 8 2D 0E 0A 00 00 C3 40 7B 
09:29:25:7716 Rx 1 0x740 s 8 2E 00 6D 40 00 18 43 00 
09:29:25:7718 Rx 1 0x740 s 8 2F 08 14 1F 34 E0 7E F8 
09:29:25:7720 Rx 1 0x740 s 8 20 1C C8 B7 08 44 07 1C 
09:29:25:7723 Rx 1 0x740 s 8 21 03 30 C3 40 7B 00 6D 
09:29:25:7725 Rx 1 0x740 s 8 22 40 00 88 78 20 40 00 
09:29:25:7727 Rx 1 0x740 s 8 23 2C 71 0F DA 40 24 C3 
09:29:25:7730 Rx 1 0x740 s 8 24 31 E8 FF 78 24 00 10 
09:29:25:7732 Rx 1 0x740 s 8 25 2C 71 0D DA 40 24 C3 
09:29:25:7734 Rx 1 0x740 s 8 26 31 E4 FF 07 14 80 30 
09:29:25:7737 Rx 1 0x740 s 8 27 87 E8 81 40 DA 09 00 
09:29:25:7739 Rx 1 0x740 s 8 28 00 07 1C 02 30 07 14 
09:29:25:7741 Rx 1 0x740 s 8 29 80 30 08 14 1F 34 E0 
09:29:25:7744 Rx 1 0x740 s 8 2A 7E E2 C3 A1 C1 08 44 
09:29:25:7746 Rx 1 0x740 s 8 2B 03 1C 03 30 CB 45 7B 
09:29:25:7748 Rx 1 0x740 s 8 2C 00 6D 40 00 8D 78 20 
09:29:25:7751 Rx 1 0x740 s 8 2D 40 00 2C 72 0F DA 40 
09:29:25:7755 Rx 1 0x740 s 8 2E 24 C3 30 D6 FF 78 24 
09:29:25:7758 Rx 1 0x740 s 8 2F 00 10 2C 72 0B DA 40 
09:29:25:7760 Rx 1 0x740 s 8 20 24 C3 30 D2 FF 03 14 
09:29:25:7762 Rx 1 0x740 s 8 21 80 30 8D E8 81 40 3E 
09:29:25:7765 Rx 1 0x740 s 8 22 0B 00 00 03 1C 02 30 
09:29:25:7767 Rx 1 0x740 s 8 23 03 14 80 30 14 70 03 
09:29:25:7769 Rx 1 0x740 s 8 24 F4 01 1D 43 10 03 14 
09:29:25:7772 Rx 1 0x740 s 8 25 80 30 C2 C7 F8 1C C8 
09:29:25:7774 Rx 1 0x740 s 8 26 B7 07 1C 03 30 C3 40 
09:29:25:7776 Rx 1 0x740 s 8 27 7B 00 6D 40 00 88 78 
09:29:25:7779 Rx 1 0x740 s 8 28 20 40 00 2C 73 0F DA 
09:29:25:7781 Rx 1 0x740 s 8 29 40 24 C3 31 C2 FF 56 
09:29:25:7784 Rx 1 0x740 s 8 2A 0B 00 00 78 20 00 00 
09:29:25:7786 Rx 1 0x740 s 8 2B 2C 73 0E DA 40 24 C3 
09:29:25:7788 Rx 1 0x740 s 8 2C 31 BE FF 07 14 80 30 
09:29:25:7791 Rx 1 0x740 s 8 2D 85 E8 12 0B 00 00 07 
09:29:25:7793 Rx 1 0x740 s 8 2E 1C 02 30 07 14 80 30 
09:29:25:7796 Rx 1 0x740 s 8 2F 08 14 1F 34 E0 7E F8 
09:29:25:7798 Rx 1 0x740 s 8 20 1C C8 B7 07 1C 03 30 
09:29:25:7801 Rx 1 0x740 s 8 21 C3 40 7B 00 6D 40 00 
09:29:25:7803 Rx 1 0x740 s 8 22 88 78 20 40 00 2C 74 
09:29:25:7805 Rx 1 0x740 s 8 23 0F DA 40 24 C3 31 B0 
09:29:25:7808 Rx 1 0x740 s 8 24 FF 07 14 80 30 2C 72 
09:29:25:7810 Rx 1 0x740 s 8 25 84 E8 06 0B 00 00 00 
09:29:25:7812 Rx 1 0x740 s 8 26 41 2F 78 08 14 1F 34 
09:29:25:7815 Rx 1 0x740 s 8 27 E0 7E F8 1C C8 B7 07 
09:29:25:7817 Rx 1 0x740 s 8 28 1C 03 30 C3 40 7B 00 
09:29:25:7819 Rx 1 0x740 s 8 29 6D 40 00 88 78 20 40 
09:29:25:7822 Rx 1 0x740 s 8 2A 00 2C 75 0F DA 40 24 
09:29:25:7824 Rx 1 0x740 s 8 2B C3 31 A3 FF 07 14 80 
09:29:25:7826 Rx 1 0x740 s 8 2C 30 2C 71 84 E8 EA 0A 
09:29:25:7829 Rx 1 0x740 s 8 2D 00 00 00 41 2F 78 08 
09:29:25:7831 Rx 1 0x740 s 8 2E 14 1F 34 E0 7E F8 1C 
09:29:25:7833 Rx 1 0x740 s 8 2F C8 B7 07 1C 03 30 C3 
09:29:25:7836 Rx 1 0x740 s 8 20 40 7B 00 6D 40 00 88 
09:29:25:7838 Rx 1 0x740 s 8 21 78 20 40 00 2C 76 0F 
09:29:25:7840 Rx 1 0x740 s 8 22 DA 40 24 C3 31 96 FF 
09:29:25:7843 Rx 1 0x740 s 8 23 07 14 81 30 FF D8 83 
09:29:25:7845 Rx 1 0x740 s 8 24 E9 C2 0A 00 00 08 14 
09:29:25:7848 Rx 1 0x740 s 8 25 1F 34 E0 7E F8 1C C8 
09:29:25:7851 Rx 1 0x740 s 8 26 B7 07 1C 03 30 C3 40 
09:29:25:7852 Rx 1 0x740 s 8 27 7B 00 6D 40 00 88 78 
09:29:25:7855 Rx 1 0x740 s 8 28 20 40 00 07 D9 0F DA 
09:29:25:7858 Rx 1 0x740 s 8 29 40 24 C3 31 8A FF 07 
09:29:25:7860 Rx 1 0x740 s 8 2A 14 80 30 84 E8 9E 0A 
09:29:25:7862 Rx 1 0x740 s 8 2B 00 00 08 14 1F 34 E0 
09:29:25:7865 Rx 1 0x740 s 8 2C 7E E0 78 E0 7E E0 78 
09:29:25:7867 Rx 1 0x740 s 8 2D F8 1C C8 B7 08 44 07 
09:29:25:7869 Rx 1 0x740 s 8 2E 1C 03 30 79 24 00 10 
09:29:25:7872 Rx 1 0x740 s 8 2F 09 D9 10 DA 40 24 C3 
09:29:25:7874 Rx 1 0x740 s 8 20 31 7F FF 07 14 80 30 
09:29:25:7876 Rx 1 0x740 s 8 21 8B E8 8B D8 00 B4 65 
09:29:25:7879 Rx 1 0x740 s 8 22 D8 01 B4 04 1C C3 10 
09:29:25:7881 Rx 1 0x740 s 8 23 05 1C 03 11 06 1C 03 
09:29:25:7883 Rx 1 0x740 s 8 24 10 08 14 1F 34 E0 7E 
09:29:25:7886 Rx 1 0x740 s 8 25 F1 C0 00 41 0C 70 85 
09:29:25:7888 Rx 1 0x740 s 8 26 E8 20 40 32 0D 00 00 
09:29:25:7891 Rx 1 0x740 s 8 27 D1 C0 E0 7E E0 78 C3 
09:29:25:7893 Rx 1 0x740 s 8 28 41 7B 00 50 50 00 A1 
09:29:25:7895 Rx 1 0x740 s 8 29 04 19 01 00 08 19 03 
09:29:25:7898 Rx 1 0x740 s 8 2A 00 E0 7E E0 78 F1 C0 
09:29:25:7900 Rx 1 0x740 s 8 2B C3 41 7B 00 50 50 20 
09:29:25:7903 Rx 1 0x740 s 8 2C 81 22 81 5F 20 02 03 
09:29:25:7905 Rx 1 0x740 s 8 2D 3A 62 21 82 00 82 42 
09:29:25:7908 Rx 1 0x740 s 8 2E 82 22 0F C0 00 0C 70 
09:29:25:7910 Rx 1 0x740 s 8 2F D1 C0 E0 7E E0 78 23 
09:29:25:7912 Rx 1 0x740 s 8 20 80 20 89 34 70 C3 42 
09:29:25:7915 Rx 1 0x740 s 8 21 7B 00 70 40 04 F2 20 
09:29:25:7917 Rx 1 0x740 s 8 22 82 10 19 41 00 03 80 
09:29:25:7920 Rx 1 0x740 s 8 23 01 88 14 70 05 F2 00 
09:29:25:7922 Rx 1 0x740 s 8 24 82 14 18 41 00 E0 7E 
09:29:25:7924 Rx 1 0x740 s 8 25 40 88 C3 43 7B 00 70 
09:29:25:7927 Rx 1 0x740 s 8 26 40 20 83 43 19 98 00 
09:29:25:7929 Rx 1 0x740 s 8 27 41 88 20 83 44 19 98 
09:29:25:7931 Rx 1 0x740 s 8 28 00 42 88 20 83 41 19 
09:29:25:7934 Rx 1 0x740 s 8 29 98 00 43 88 20 83 42 
09:29:25:7936 Rx 1 0x740 s 8 2A 19 98 00 44 88 20 83 
09:29:25:7938 Rx 1 0x740 s 8 2B 40 19 98 00 45 88 20 
09:29:25:7941 Rx 1 0x740 s 8 2C 83 45 19 98 00 06 88 
09:29:25:7943 Rx 1 0x740 s 8 2D 20 83 46 19 18 00 E0 
09:29:25:7945 Rx 1 0x740 s 8 2E 7E 42 80 44 22 43 00 
09:29:25:7948 Rx 1 0x740 s 8 2F C3 41 7B 00 70 40 00 
09:29:25:7950 Rx 1 0x740 s 8 20 81 98 18 D8 00 44 22 
09:29:25:7953 Rx 1 0x740 s 8 21 80 00 1D 7B 00 81 80 
09:29:25:7955 Rx 1 0x740 s 8 22 18 D8 00 44 22 00 01 
09:29:25:7957 Rx 1 0x740 s 8 23 41 28 83 00 00 81 83 
09:29:25:7960 Rx 1 0x740 s 8 24 18 D8 00 44 22 00 02 
09:29:25:7963 Rx 1 0x740 s 8 25 41 28 C3 00 00 81 84 
09:29:25:7964 Rx 1 0x740 s 8 26 18 D8 00 44 22 00 04 
09:29:25:7967 Rx 1 0x740 s 8 27 41 28 03 01 00 81 85 
09:29:25:7970 Rx 1 0x740 s 8 28 18 D8 00 44 22 00 08 
09:29:25:7972 Rx 1 0x740 s 8 29 41 28 43 01 00 81 86 
09:29:25:7974 Rx 1 0x740 s 8 2A 18 D8 00 40 43 84 23 
09:29:25:7977 Rx 1 0x740 s 8 2B 01 00 26 BB 00 81 87 
09:29:25:7979 Rx 1 0x740 s 8 2C 18 D8 00 40 43 84 23 
09:29:25:7981 Rx 1 0x740 s 8 2D 02 00 27 BB 00 81 88 
09:29:25:7984 Rx 1 0x740 s 8 2E 18 D8 00 40 43 84 23 
09:29:25:7986 Rx 1 0x740 s 8 2F 04 00 28 BB 00 81 89 
09:29:25:7988 Rx 1 0x740 s 8 20 18 D8 00 40 43 84 23 
09:29:25:7991 Rx 1 0x740 s 8 21 08 00 29 BB 00 81 8A 
09:29:25:7993 Rx 1 0x740 s 8 22 18 D8 00 40 43 84 23 
09:29:25:7995 Rx 1 0x740 s 8 23 10 00 2A BB 00 81 8B 
09:29:25:7998 Rx 1 0x740 s 8 24 18 D8 00 6C 70 8B BB 
09:29:25:8000 Rx 1 0x740 s 8 25 04 22 C0 00 41 28 CC 
09:29:25:8002 Rx 1 0x740 s 8 26 02 00 81 8C 18 18 03 
09:29:25:8005 Rx 1 0x740 s 8 27 7B 78 44 78 41 28 0C 
09:29:25:8007 Rx 1 0x740 s 8 28 03 00 81 8D 18 18 03 
09:29:25:8009 Rx 1 0x740 s 8 29 12 6B 44 78 41 28 4C 
09:29:25:8012 Rx 1 0x740 s 8 2A 03 00 81 8E 18 18 03 
09:29:25:8014 Rx 1 0x740 s 8 2B 13 6B 44 78 41 28 8C 
09:29:25:8016 Rx 1 0x740 s 8 2C 03 00 81 8F 18 18 03 
09:29:25:8019 Rx 1 0x740 s 8 2D 14 6B 44 78 41 28 CC 
09:29:25:8021 Rx 1 0x740 s 8 2E 03 00 81 90 18 18 03 
09:29:25:8023 Rx 1 0x740 s 8 2F 15 6B 44 78 41 28 0C 
09:29:25:8026 Rx 1 0x740 s 8 20 04 00 81 91 18 18 03 
09:29:25:8028 Rx 1 0x740 s 8 21 16 6B 44 78 41 28 4C 
09:29:25:8031 Rx 1 0x740 s 8 22 04 00 81 92 18 18 03 
09:29:25:8033 Rx 1 0x740 s 8 23 17 6B 44 78 41 28 8C 
09:29:25:8036 Rx 1 0x740 s 8 24 04 00 81 93 18 18 03 
09:29:25:8038 Rx 1 0x740 s 8 25 40 2B 00 02 04 7A 41 
09:29:25:8040 Rx 1 0x740 s 8 26 2A C0 04 20 81 94 19 
09:29:25:8043 Rx 1 0x740 s 8 27 18 00 E0 7E E0 78 F1 
09:29:25:8045 Rx 1 0x740 s 8 28 C0 C3 41 7B 00 50 50 
09:29:25:8047 Rx 1 0x740 s 8 29 09 A9 20 81 23 81 94 
09:29:25:8050 Rx 1 0x740 s 8 2A 68 3C 64 81 40 99 FF 
09:29:25:8052 Rx 1 0x740 s 8 2B 81 40 A1 FF 81 40 B0 
09:29:25:8055 Rx 1 0x740 s 8 2C FF 0C 70 D1 C0 E0 7E 
09:29:25:8057 Rx 1 0x740 s 8 2D C3 40 7B 00 70 40 20 
09:29:25:8059 Rx 1 0x740 s 8 2E 80 22 81 C0 B9 34 70 
09:29:25:8062 Rx 1 0x740 s 8 2F 05 F4 20 80 08 19 41 
09:29:25:8064 Rx 1 0x740 s 8 20 00 20 80 23 81 C0 B9 
09:29:25:8066 Rx 1 0x740 s 8 21 34 70 05 F4 00 80 0C 
09:29:25:8069 Rx 1 0x740 s 8 22 18 41 00 0C 70 E0 7E 
09:29:25:8071 Rx 1 0x740 s 8 23 E0 78 C3 40 7B 00 70 
09:29:25:8074 Rx 1 0x740 s 8 24 40 00 80 01 80 C0 B8 
09:29:25:8076 Rx 1 0x740 s 8 25 14 70 04 F2 0C 70 03 
09:29:25:8078 Rx 1 0x740 s 8 26 F0 0C 71 E0 7E C3 40 
09:29:25:8081 Rx 1 0x740 s 8 27 7B 00 58 50 00 88 E0 
09:29:25:8083 Rx 1 0x740 s 8 28 7E E0 78 C3 40 7B 00 
09:29:25:8085 Rx 1 0x740 s 8 29 54 50 00 80 E0 7E E0 
09:29:25:8088 Rx 1 0x740 s 8 2A 78 C3 40 7B 00 50 50 
09:29:25:8090 Rx 1 0x740 s 8 2B 00 80 41 80 44 22 40 
09:29:25:8092 Rx 1 0x740 s 8 2C 00 14 70 C3 41 7B 00 
09:29:25:8095 Rx 1 0x740 s 8 2D 70 40 07 F2 00 81 C0 
09:29:25:8098 Rx 1 0x740 s 8 2E 18 59 00 C5 02 00 00 
09:29:25:8100 Rx 1 0x740 s 8 2F 44 22 80 00 14 70 07 
09:29:25:8102 Rx 1 0x740 s 8 20 F2 00 81 C1 18 19 00 
09:29:25:8105 Rx 1 0x740 s 8 21 00 81 C1 18 59 00 44 
09:29:25:8107 Rx 1 0x740 s 8 22 22 00 01 14 70 0D F2 
09:29:25:8109 Rx 1 0x740 s 8 23 60 81 0C 70 C2 1B 19 
09:29:25:8112 Rx 1 0x740 s 8 24 00 0F 7B 89 E3 04 F6 
09:29:25:8114 Rx 1 0x740 s 8 25 04 71 FD F1 00 81 C2 
09:29:25:8116 Rx 1 0x740 s 8 26 18 59 00 44 22 00 02 
09:29:25:8119 Rx 1 0x740 s 8 27 14 70 0D F2 60 81 0C 
09:29:25:8121 Rx 1 0x740 s 8 28 70 C3 1B 19 00 0F 7B 
09:29:25:8123 Rx 1 0x740 s 8 29 89 E3 04 F6 04 71 FD 
09:29:25:8126 Rx 1 0x740 s 8 2A F1 00 81 C3 18 59 00 
09:29:25:8128 Rx 1 0x740 s 8 2B 44 22 00 04 14 70 0D 
09:29:25:8130 Rx 1 0x740 s 8 2C F2 60 81 0C 70 C4 1B 
09:29:25:8133 Rx 1 0x740 s 8 2D 19 00 0F 7B 89 E3 04 
09:29:25:8135 Rx 1 0x740 s 8 2E F6 04 71 FD F1 00 81 
09:29:25:8137 Rx 1 0x740 s 8 2F C4 18 59 00 44 22 00 
09:29:25:8140 Rx 1 0x740 s 8 20 08 14 70 0D F2 60 81 
09:29:25:8142 Rx 1 0x740 s 8 21 0C 70 C5 1B 19 00 0F 
09:29:25:8144 Rx 1 0x740 s 8 22 7B 89 E3 04 F6 04 71 
09:29:25:8147 Rx 1 0x740 s 8 23 FD F1 00 81 C5 18 59 
09:29:25:8149 Rx 1 0x740 s 8 24 00 40 40 84 20 01 00 
09:29:25:8151 Rx 1 0x740 s 8 25 14 70 0E F2 60 81 0C 
09:29:25:8154 Rx 1 0x740 s 8 26 70 C6 1B 19 00 0F 7B 
09:29:25:8156 Rx 1 0x740 s 8 27 89 E3 03 F6 04 71 FC 
09:29:25:8158 Rx 1 0x740 s 8 28 F1 00 81 C6 18 59 00 
09:29:25:8161 Rx 1 0x740 s 8 29 40 40 84 20 02 00 14 
09:29:25:8164 Rx 1 0x740 s 8 2A 70 0D F2 60 81 0C 70 
09:29:25:8166 Rx 1 0x740 s 8 2B C7 1B 19 00 0F 7B 89 
09:29:25:8168 Rx 1 0x740 s 8 2C E3 04 F6 04 71 FD F1 
09:29:25:8171 Rx 1 0x740 s 8 2D 00 81 C7 18 59 00 40 
09:29:25:8173 Rx 1 0x740 s 8 2E 40 84 20 04 00 14 70 
09:29:25:8175 Rx 1 0x740 s 8 2F 0E F2 60 81 0C 70 C8 
09:29:25:8178 Rx 1 0x740 s 8 20 1B 19 00 0F 7B 89 E3 
09:29:25:8180 Rx 1 0x740 s 8 21 03 F6 04 71 FC F1 00 
09:29:25:8182 Rx 1 0x740 s 8 22 81 C8 18 59 00 40 40 
09:29:25:8185 Rx 1 0x740 s 8 23 84 20 08 00 14 70 0D 
09:29:25:8187 Rx 1 0x740 s 8 24 F2 60 81 0C 70 C9 1B 
09:29:25:8189 Rx 1 0x740 s 8 25 19 00 0F 7B 89 E3 04 
09:29:25:8192 Rx 1 0x740 s 8 26 F6 04 71 FD F1 00 81 
09:29:25:8194 Rx 1 0x740 s 8 27 C9 18 59 00 40 40 84 
09:29:25:8196 Rx 1 0x740 s 8 28 20 10 00 14 70 0E F2 
09:29:25:8199 Rx 1 0x740 s 8 29 60 81 0C 70 CA 1B 19 
09:29:25:8201 Rx 1 0x740 s 8 2A 00 0F 7B 89 E3 03 F6 
09:29:25:8203 Rx 1 0x740 s 8 2B 04 71 FC F1 00 81 CA 
09:29:25:8206 Rx 1 0x740 s 8 2C 18 59 00 04 22 80 0F 
09:29:25:8208 Rx 1 0x740 s 8 2D 00 00 00 08 14 70 0E 
09:29:25:8211 Rx 1 0x740 s 8 2E F2 60 81 0C 70 CB 1B 
09:29:25:8213 Rx 1 0x740 s 8 2F 19 00 0F 7B 89 E3 03 
09:29:25:8215 Rx 1 0x740 s 8 20 F6 04 71 FC F1 00 81 
09:29:25:8218 Rx 1 0x740 s 8 21 CB 18 59 00 04 22 80 
09:29:25:8220 Rx 1 0x740 s 8 22 0F 00 00 00 10 14 70 
09:29:25:8222 Rx 1 0x740 s 8 23 0E F2 60 81 0C 70 CC 
09:29:25:8225 Rx 1 0x740 s 8 24 1B 19 00 0F 7B 89 E3 
09:29:25:8227 Rx 1 0x740 s 8 25 03 F6 04 71 FC F1 00 
09:29:25:8229 Rx 1 0x740 s 8 26 81 CC 18 59 00 04 22 
09:29:25:8232 Rx 1 0x740 s 8 27 80 0F 00 00 00 20 14 
09:29:25:8234 Rx 1 0x740 s 8 28 70 0E F2 60 81 0C 70 
09:29:25:8236 Rx 1 0x740 s 8 29 CD 1B 19 00 0F 7B 89 
09:29:25:8239 Rx 1 0x740 s 8 2A E3 03 F6 04 71 FC F1 
09:29:25:8241 Rx 1 0x740 s 8 2B 00 81 CD 18 59 00 04 
09:29:25:8244 Rx 1 0x740 s 8 2C 22 80 0F 00 00 00 40 
09:29:25:8246 Rx 1 0x740 s 8 2D 14 70 0E F2 60 81 0C 
09:29:25:8249 Rx 1 0x740 s 8 2E 70 CE 1B 19 00 0F 7B 
09:29:25:8251 Rx 1 0x740 s 8 2F 89 E3 03 F6 04 71 FC 
09:29:25:8253 Rx 1 0x740 s 8 20 F1 00 81 CE 18 59 00 
09:29:25:8256 Rx 1 0x740 s 8 21 04 22 80 0F 00 00 00 
09:29:25:8258 Rx 1 0x740 s 8 22 80 14 70 0E F2 60 81 
09:29:25:8260 Rx 1 0x740 s 8 23 0C 70 CF 1B 19 00 0F 
09:29:25:8263 Rx 1 0x740 s 8 24 7B 89 E3 03 F6 04 71 
09:29:25:8265 Rx 1 0x740 s 8 25 FC F1 00 81 CF 18 59 
09:29:25:8267 Rx 1 0x740 s 8 26 00 04 22 80 0F 01 00 
09:29:25:8270 Rx 1 0x740 s 8 27 00 00 14 70 0E F2 60 
09:29:25:8272 Rx 1 0x740 s 8 28 81 0C 70 D0 1B 19 00 
09:29:25:8274 Rx 1 0x740 s 8 29 0F 7B 89 E3 03 F6 04 
09:29:25:8277 Rx 1 0x740 s 8 2A 71 FC F1 00 81 D0 18 
09:29:25:8279 Rx 1 0x740 s 8 2B 59 00 04 22 80 0F 02 
09:29:25:8282 Rx 1 0x740 s 8 2C 00 00 00 14 70 08 F2 
09:29:25:8284 Rx 1 0x740 s 8 2D 00 81 D1 18 19 00 00 
09:29:25:8286 Rx 1 0x740 s 8 2E 81 D1 18 59 00 04 22 
09:29:25:8289 Rx 1 0x740 s 8 2F 80 0F 04 00 00 00 14 
09:29:25:8291 Rx 1 0x740 s 8 20 70 0E F2 60 81 0C 70 
09:29:25:8293 Rx 1 0x740 s 8 21 D2 1B 19 00 0F 7B 89 
09:29:25:8296 Rx 1 0x740 s 8 22 E3 03 F6 04 71 FC F1 
09:29:25:8299 Rx 1 0x740 s 8 23 00 81 D2 18 59 00 04 
09:29:25:8300 Rx 1 0x740 s 8 24 22 80 0F 08 00 00 00 
09:29:25:8303 Rx 1 0x740 s 8 25 14 70 0E F2 60 81 0C 
09:29:25:8306 Rx 1 0x740 s 8 26 70 D3 1B 19 00 0F 7B 
09:29:25:8308 Rx 1 0x740 s 8 27 89 E3 03 F6 04 71 FC 
09:29:25:8310 Rx 1 0x740 s 8 28 F1 00 81 D3 18 59 00 
09:29:25:8313 Rx 1 0x740 s 8 29 04 22 80 0F 10 00 00 
09:29:25:8315 Rx 1 0x740 s 8 2A 00 14 70 0E F2 60 81 
09:29:25:8317 Rx 1 0x740 s 8 2B 0C 70 D4 1B 19 00 0F 
09:29:25:8320 Rx 1 0x740 s 8 2C 7B 89 E3 03 F6 04 71 
09:29:25:8322 Rx 1 0x740 s 8 2D FC F1 00 81 D4 18 59 
09:29:25:8324 Rx 1 0x740 s 8 2E 00 04 22 80 0F 20 00 
09:29:25:8327 Rx 1 0x740 s 8 2F 00 00 14 70 0E F2 00 
09:29:25:8329 Rx 1 0x740 s 8 20 81 4C 70 D5 18 19 00 
09:29:25:8331 Rx 1 0x740 s 8 21 4F 78 89 E0 03 F6 44 
09:29:25:8334 Rx 1 0x740 s 8 22 71 FC F1 00 81 D5 18 
09:29:25:8336 Rx 1 0x740 s 8 23 59 00 E0 7E E0 78 E2 
09:29:25:8338 Rx 1 0x740 s 8 24 C2 C3 42 7B 00 50 50 
09:29:25:8390 Rx 1 0x748 s 8 02 76 03 FF FF FF FF FF 
09:29:25:8406 Rx 1 0x740 s 8 18 02 36 04 20 82 63 81 
09:29:25:8510 Rx 1 0x748 s 8 30 00 00 FF FF FF FF FF 
09:29:25:8527 Rx 1 0x740 s 8 21 29 8A 04 B9 3A 63 89 
09:29:25:8530 Rx 1 0x740 s 8 22 E0 B0 00 0D 00 C3 41 
09:29:25:8532 Rx 1 0x740 s 8 23 7B 00 70 40 25 20 00 
09:29:25:8534 Rx 1 0x740 s 8 24 00 0B F0 15 F0 15 F0 
09:29:25:8537 Rx 1 0x740 s 8 25 13 F0 13 F0 11 F0 11 
09:29:25:8539 Rx 1 0x740 s 8 26 F0 0F F0 1E F0 32 F0 
09:29:25:8541 Rx 1 0x740 s 8 27 00 81 03 80 14 70 05 
09:29:25:8544 Rx 1 0x740 s 8 28 F2 C3 40 D7 17 00 84 
09:29:25:8546 Rx 1 0x740 s 8 29 04 F0 C3 40 FA 02 80 
09:29:25:8548 Rx 1 0x740 s 8 2A F0 3D F0 00 81 44 10 
09:29:25:8551 Rx 1 0x740 s 8 2B 0D 06 C3 BD 0C 70 EA 
09:29:25:8553 Rx 1 0x740 s 8 2C FF 83 E8 07 F0 B5 70 
09:29:25:8555 Rx 1 0x740 s 8 2D 02 F4 05 F0 21 6D 05 
09:29:25:8558 Rx 1 0x740 s 8 2E 28 40 00 2F F0 03 82 
09:29:25:8560 Rx 1 0x740 s 8 2F 00 88 14 70 05 F2 03 
09:29:25:8563 Rx 1 0x740 s 8 20 82 01 80 0F F0 00 81 
09:29:25:8565 Rx 1 0x740 s 8 21 45 10 0D 06 C3 BD 0C 
09:29:25:8567 Rx 1 0x740 s 8 22 70 DF FF 83 E8 07 F0 
09:29:25:8570 Rx 1 0x740 s 8 23 B5 70 02 F4 05 F0 21 
09:29:25:8572 Rx 1 0x740 s 8 24 6D 05 28 40 00 19 F0 
09:29:25:8574 Rx 1 0x740 s 8 25 03 82 01 88 14 70 05 
09:29:25:8577 Rx 1 0x740 s 8 26 F2 03 82 01 80 0F F0 
09:29:25:8580 Rx 1 0x740 s 8 27 00 81 46 10 0D 06 C3 
09:29:25:8581 Rx 1 0x740 s 8 28 BD 0C 70 D4 FF 83 E8 
09:29:25:8584 Rx 1 0x740 s 8 29 07 F0 B5 70 02 F4 05 
09:29:25:8587 Rx 1 0x740 s 8 2A F0 21 6D 05 28 40 00 
09:29:25:8588 Rx 1 0x740 s 8 2B 03 F0 0C 70 C2 C6 E4 
09:29:25:8591 Rx 1 0x740 s 8 2C C3 A1 C1 08 46 03 1C 
09:29:25:8594 Rx 1 0x740 s 8 2D 03 30 78 26 00 10 2C 
09:29:25:8596 Rx 1 0x740 s 8 2E 70 10 DA 40 24 C3 30 
09:29:25:8598 Rx 1 0x740 s 8 2F 7A 0D 00 00 CB 45 7B 
09:29:25:8601 Rx 1 0x740 s 8 20 00 74 40 00 8D 78 20 
09:29:25:8603 Rx 1 0x740 s 8 21 40 00 2C 70 4A DA 40 
09:29:25:8605 Rx 1 0x740 s 8 22 24 C3 30 62 0D 00 00 
09:29:25:8608 Rx 1 0x740 s 8 23 03 14 80 30 85 E8 C1 
09:29:25:8610 Rx 1 0x740 s 8 24 40 46 0B 00 00 00 1D 
09:29:25:8612 Rx 1 0x740 s 8 25 43 10 C4 C7 E2 C3 A1 
09:29:25:8615 Rx 1 0x740 s 8 26 C1 03 1C 03 30 CB 45 
09:29:25:8617 Rx 1 0x740 s 8 27 7B 00 74 40 00 8D 78 
09:29:25:8620 Rx 1 0x740 s 8 28 20 00 00 2C 71 1A DA 
09:29:25:8622 Rx 1 0x740 s 8 29 40 24 C3 30 2E 0D 00 
09:29:25:8624 Rx 1 0x740 s 8 2A 00 03 14 80 30 8B E8 
09:29:25:8627 Rx 1 0x740 s 8 2B 66 0C 00 00 03 1C 02 
09:29:25:8629 Rx 1 0x740 s 8 2C 30 03 14 80 30 14 70 
09:29:25:8631 Rx 1 0x740 s 8 2D 03 F4 00 1D 03 10 03 
09:29:25:8634 Rx 1 0x740 s 8 2E 14 80 30 C2 C7 E4 C3 
09:29:25:8636 Rx 1 0x740 s 8 2F A1 C1 28 46 08 45 03 
09:29:25:8638 Rx 1 0x740 s 8 20 1C 03 30 C3 40 7B 00 
09:29:25:8641 Rx 1 0x740 s 8 21 74 40 00 88 78 20 00 
09:29:25:8644 Rx 1 0x740 s 8 22 00 2C 72 1A DA 40 24 
09:29:25:8645 Rx 1 0x740 s 8 23 C3 30 EA 0C 00 00 7D 
09:29:25:8648 Rx 1 0x740 s 8 24 25 80 12 2C 72 0A DA 
09:29:25:8651 Rx 1 0x740 s 8 25 40 24 C3 30 DA 0C 00 
09:29:25:8652 Rx 1 0x740 s 8 26 00 03 14 80 30 87 E8 
09:29:25:8655 Rx 1 0x740 s 8 27 A1 40 C1 41 CE 0D 00 
09:29:25:8658 Rx 1 0x740 s 8 28 00 03 1C 02 30 03 14 
09:29:25:8660 Rx 1 0x740 s 8 29 80 30 C4 C7 E4 C3 A1 
09:29:25:8662 Rx 1 0x740 s 8 2A C1 28 45 08 46 03 1C 
09:29:25:8665 Rx 1 0x740 s 8 2B 03 30 C3 40 7B 00 74 
09:29:25:8667 Rx 1 0x740 s 8 2C 40 00 88 78 20 00 00 
09:29:25:8669 Rx 1 0x740 s 8 2D 2C 74 1A DA 40 24 C3 
09:29:25:8672 Rx 1 0x740 s 8 2E 30 9E 0C 00 00 78 25 
09:29:25:8674 Rx 1 0x740 s 8 2F 00 10 2C 74 10 DA 40 
09:29:25:8676 Rx 1 0x740 s 8 20 24 C3 30 8E 0C 00 00 
09:29:25:8679 Rx 1 0x740 s 8 21 7D 26 80 12 2C 74 0A 
09:29:25:8681 Rx 1 0x740 s 8 22 DA 40 24 C3 30 7E 0C 
09:29:25:8683 Rx 1 0x740 s 8 23 00 00 03 14 80 30 87 
09:29:25:8686 Rx 1 0x740 s 8 24 E8 C1 40 A1 41 EA 0C 
09:29:25:8688 Rx 1 0x740 s 8 25 00 00 03 1C 02 30 03 
09:29:25:8691 Rx 1 0x740 s 8 26 14 80 30 C4 C7 E8 C3 
09:29:25:8693 Rx 1 0x740 s 8 27 A1 C1 68 46 48 47 30 
09:29:25:8695 Rx 1 0x740 s 8 28 40 08 45 03 1C 03 30 
09:29:25:8698 Rx 1 0x740 s 8 29 C3 40 7B 00 74 40 00 
09:29:25:8700 Rx 1 0x740 s 8 2A 88 78 20 00 00 2C 75 
09:29:25:8702 Rx 1 0x740 s 8 2B 1A DA 40 24 C3 30 3E 
09:29:25:8705 Rx 1 0x740 s 8 2C 0C 00 00 7D 25 80 12 
09:29:25:8707 Rx 1 0x740 s 8 2D 2C 75 0A DA 40 24 C3 
09:29:25:8709 Rx 1 0x740 s 8 2E 30 2E 0C 00 00 03 14 
09:29:25:8712 Rx 1 0x740 s 8 2F 80 30 89 E8 A1 40 02 
09:29:25:8715 Rx 1 0x740 s 8 20 41 E1 42 C1 43 2E 0C 
09:29:25:8716 Rx 1 0x740 s 8 21 00 00 03 1C 02 30 03 
09:29:25:8719 Rx 1 0x740 s 8 22 14 80 30 C8 C7 E2 C3 
09:29:25:8722 Rx 1 0x740 s 8 23 A1 C1 08 45 03 1C 03 
09:29:25:8724 Rx 1 0x740 s 8 24 30 C3 40 7B 00 74 40 
09:29:25:8726 Rx 1 0x740 s 8 25 00 88 78 20 00 00 0A 
09:29:25:8729 Rx 1 0x740 s 8 26 D9 1A DA 40 24 C3 30 
09:29:25:8731 Rx 1 0x740 s 8 27 F2 0B 00 00 7D 25 80 
09:29:25:8733 Rx 1 0x740 s 8 28 12 0A D9 0C DA 40 24 
09:29:25:8736 Rx 1 0x740 s 8 29 C3 30 E2 0B 00 00 03 
09:29:25:8738 Rx 1 0x740 s 8 2A 14 80 30 87 E8 A1 40 
09:29:25:8740 Rx 1 0x740 s 8 2B 2E 0E 40 00 03 1C 02 
09:29:25:8743 Rx 1 0x740 s 8 2C 30 03 14 80 30 C2 C7 
09:29:25:8745 Rx 1 0x740 s 8 2D E2 C3 A1 C1 08 45 03 
09:29:25:8747 Rx 1 0x740 s 8 2E 1C 03 30 C3 40 7B 00 
09:29:25:8750 Rx 1 0x740 s 8 2F 74 40 00 88 78 20 00 
09:29:25:8752 Rx 1 0x740 s 8 20 00 2C 73 1A DA 40 24 
09:29:25:8754 Rx 1 0x740 s 8 21 C3 30 AA 0B 00 00 7D 
09:29:25:8757 Rx 1 0x740 s 8 22 25 80 12 2C 73 0C DA 
09:29:25:8759 Rx 1 0x740 s 8 23 40 24 C3 30 9A 0B 00 
09:29:25:8761 Rx 1 0x740 s 8 24 00 03 14 80 30 87 E8 
09:29:25:8764 Rx 1 0x740 s 8 25 A1 40 0A 0A 80 00 03 
09:29:25:8766 Rx 1 0x740 s 8 26 1C 02 30 03 14 80 30 
09:29:25:8768 Rx 1 0x740 s 8 27 C2 C7 F1 C0 C3 40 7B 
09:29:25:8771 Rx 1 0x740 s 8 28 00 74 40 00 88 14 70 
09:29:25:8773 Rx 1 0x740 s 8 29 03 F4 2C 70 04 F0 8A 
09:29:25:8776 Rx 1 0x740 s 8 2A 0A 00 00 00 41 2F 78 
09:29:25:8778 Rx 1 0x740 s 8 2B D1 C0 E0 7E E0 78 E2 
09:29:25:8780 Rx 1 0x740 s 8 2C C3 A1 C1 08 45 03 1C 
09:29:25:8783 Rx 1 0x740 s 8 2D 03 30 C3 40 7B 00 74 
09:29:25:8785 Rx 1 0x740 s 8 2E 40 00 88 78 20 00 00 
09:29:25:8788 Rx 1 0x740 s 8 2F 07 D9 1A DA 40 24 C3 
09:29:25:8790 Rx 1 0x740 s 8 20 30 42 0B 00 00 7D 25 
09:29:25:8793 Rx 1 0x740 s 8 21 C0 12 07 D9 0B DA 40 
09:29:25:8795 Rx 1 0x740 s 8 22 24 C3 30 32 0B 00 00 
09:29:25:8797 Rx 1 0x740 s 8 23 03 14 80 30 2C 72 85 
09:29:25:8800 Rx 1 0x740 s 8 24 E8 A1 40 06 0B 00 00 
09:29:25:8802 Rx 1 0x740 s 8 25 00 41 2F 78 C2 C7 E0 
09:29:25:8804 Rx 1 0x740 s 8 26 78 E2 C3 A1 C1 08 45 
09:29:25:8807 Rx 1 0x740 s 8 27 03 1C 03 30 C3 40 7B 
09:29:25:8809 Rx 1 0x740 s 8 28 00 74 40 00 88 78 20 
09:29:25:8811 Rx 1 0x740 s 8 29 00 00 08 D9 1A DA 40 
09:29:25:8814 Rx 1 0x740 s 8 2A 24 C3 30 FA 0A 00 00 
09:29:25:8816 Rx 1 0x740 s 8 2B 7D 25 80 12 08 D9 0C 
09:29:25:8818 Rx 1 0x740 s 8 2C DA 40 24 C3 30 EA 0A 
09:29:25:8821 Rx 1 0x740 s 8 2D 00 00 03 14 80 30 2C 
09:29:25:8823 Rx 1 0x740 s 8 2E 72 85 E8 A1 40 CA 0A 
09:29:25:8825 Rx 1 0x740 s 8 2F 00 00 00 41 2F 78 C2 
09:29:25:8828 Rx 1 0x740 s 8 20 C7 E0 78 E2 C3 A1 C1 
09:29:25:8830 Rx 1 0x740 s 8 21 08 45 03 1C 03 30 C3 
09:29:25:8832 Rx 1 0x740 s 8 22 40 7B 00 74 40 00 88 
09:29:25:8835 Rx 1 0x740 s 8 23 78 20 00 00 0C D9 1A 
09:29:25:8837 Rx 1 0x740 s 8 24 DA 40 24 C3 30 B2 0A 
09:29:25:8840 Rx 1 0x740 s 8 25 00 00 7D 25 80 12 0C 
09:29:25:8842 Rx 1 0x740 s 8 26 D9 0C DA 40 24 C3 30 
09:29:25:8844 Rx 1 0x740 s 8 27 A2 0A 00 00 03 14 80 
09:29:25:8847 Rx 1 0x740 s 8 28 30 85 E8 A1 40 66 0A 
09:29:25:8849 Rx 1 0x740 s 8 29 80 00 C2 C7 E2 C3 A1 
09:29:25:8852 Rx 1 0x740 s 8 2A C1 08 45 03 1C 03 30 
09:29:25:8854 Rx 1 0x740 s 8 2B C3 40 7B 00 74 40 00 
09:29:25:8856 Rx 1 0x740 s 8 2C 88 78 20 00 00 0D D9 
09:29:25:8859 Rx 1 0x740 s 8 2D 1A DA 40 24 C3 30 72 
09:29:25:8861 Rx 1 0x740 s 8 2E 0A 00 00 03 14 80 30 
09:29:25:8863 Rx 1 0x740 s 8 2F 87 E8 A1 40 B6 0A 80 
09:29:25:8866 Rx 1 0x740 s 8 20 00 03 1C 02 30 03 14 
09:29:25:8868 Rx 1 0x740 s 8 21 80 30 C2 C7 E2 C3 A1 
09:29:25:8870 Rx 1 0x740 s 8 22 C1 08 45 03 1C 03 30 
09:29:25:8873 Rx 1 0x740 s 8 23 78 25 00 10 09 D9 10 
09:29:25:8875 Rx 1 0x740 s 8 24 DA 40 24 C3 30 42 0A 
09:29:25:8877 Rx 1 0x740 s 8 25 00 00 03 14 80 30 8C 
09:29:25:8880 Rx 1 0x740 s 8 26 E8 8B D8 00 B5 53 D8 
09:29:25:8882 Rx 1 0x740 s 8 27 01 B5 04 1D C3 10 05 
09:29:25:8885 Rx 1 0x740 s 8 28 1D 03 11 06 1D 03 10 
09:29:25:8887 Rx 1 0x740 s 8 29 C2 C7 E0 78 F1 C0 72 
09:29:25:8889 Rx 1 0x740 s 8 2A 0F 40 00 D1 C0 E0 7E 
09:29:25:8892 Rx 1 0x740 s 8 2B E0 78 E6 C2 08 45 0C 
09:29:25:8894 Rx 1 0x740 s 8 2C 73 82 0E 8F FF 14 70 
09:29:25:8896 Rx 1 0x740 s 8 2D 8F F2 C3 42 7B 00 6C 
09:29:25:8899 Rx 1 0x740 s 8 2E 74 00 A2 C3 41 7B 00 
09:29:25:8901 Rx 1 0x740 s 8 2F 5C 50 A0 A1 6C 70 CB 
09:29:25:8903 Rx 1 0x740 s 8 20 44 7B 00 90 50 54 24 
09:29:25:8906 Rx 1 0x740 s 8 21 8B 1B 70 78 8A E0 08 
09:29:25:8908 Rx 1 0x740 s 8 22 F7 70 78 98 60 5C 18 
09:29:25:8910 Rx 1 0x740 s 8 23 03 00 64 71 F9 F1 6C 
09:29:25:8913 Rx 1 0x740 s 8 24 70 70 78 89 E0 14 F7 
09:29:25:8915 Rx 1 0x740 s 8 25 70 7E 5F 26 8D 11 B8 
09:29:25:8917 Rx 1 0x740 s 8 26 64 20 18 03 00 00 81 
09:29:25:8920 Rx 1 0x740 s 8 27 E5 80 14 6E F8 60 C5 
09:29:25:8922 Rx 1 0x740 s 8 28 90 B8 64 D1 B0 B8 64 
09:29:25:8924 Rx 1 0x740 s 8 29 24 18 05 00 64 71 ED 
09:29:25:8927 Rx 1 0x740 s 8 2A F1 0C 70 00 1C 03 10 
09:29:25:8930 Rx 1 0x740 s 8 2B 10 7B 74 72 08 F6 10 
09:29:25:8932 Rx 1 0x740 s 8 2C 7B 9B 63 1C 1B 03 00 
09:29:25:8934 Rx 1 0x740 s 8 2D 04 71 F9 F1 6C 70 70 
09:29:25:8937 Rx 1 0x740 s 8 2E 78 14 73 0D F7 00 81 
09:29:25:8939 Rx 1 0x740 s 8 2F A3 80 5F 23 00 05 B8 
09:29:25:8941 Rx 1 0x740 s 8 20 60 03 80 98 60 1C 18 
09:29:25:8944 Rx 1 0x740 s 8 21 43 00 64 71 F3 F1 6C 
09:29:25:8946 Rx 1 0x740 s 8 22 70 9C 19 C4 00 04 6A 
09:29:25:8948 Rx 1 0x740 s 8 23 0E A1 00 81 C2 80 4C 
09:29:25:8951 Rx 1 0x740 s 8 24 70 AD 70 01 8E 14 71 
09:29:25:8953 Rx 1 0x740 s 8 25 02 F2 09 F0 50 78 14 
09:29:25:8955 Rx 1 0x740 s 8 26 24 00 10 A4 B0 05 96 
09:29:25:8958 Rx 1 0x740 s 8 27 1D 65 64 71 10 E6 44 
09:29:25:8960 Rx 1 0x740 s 8 28 71 50 7F 00 81 00 88 
09:29:25:8962 Rx 1 0x740 s 8 29 10 77 B0 F6 9C 19 C4 
09:29:25:8965 Rx 1 0x740 s 8 2A 00 00 81 00 88 74 48 
09:29:25:8967 Rx 1 0x740 s 8 2B 6C 70 85 77 5F 24 00 
09:29:25:8969 Rx 1 0x740 s 8 2C 13 1A 61 1D 61 62 A5 
09:29:25:8971 Rx 1 0x740 s 8 2D 61 A2 1A 61 66 B2 38 
09:29:25:8974 Rx 1 0x740 s 8 2E 60 6E A8 90 78 14 70 
09:29:25:8976 Rx 1 0x740 s 8 2F F4 F5 6C 70 70 78 14 
09:29:25:8979 Rx 1 0x740 s 8 20 74 C3 40 7B 00 FA 50 
09:29:25:8981 Rx 1 0x740 s 8 21 0B F7 70 79 14 20 42 
09:29:25:8983 Rx 1 0x740 s 8 22 00 06 1A C5 0F 38 60 
09:29:25:8986 Rx 1 0x740 s 8 23 10 18 C3 0F 64 71 F1 
09:29:25:8988 Rx 1 0x740 s 8 24 F1 02 18 05 00 04 18 
09:29:25:8990 Rx 1 0x740 s 8 25 05 00 00 18 43 00 C6 
09:29:25:8993 Rx 1 0x740 s 8 26 C6 0C 71 4C 70 4F 79 
09:29:25:8995 Rx 1 0x740 s 8 27 89 E1 0D F7 4F 79 5F 
09:29:25:8997 Rx 1 0x740 s 8 28 21 81 01 32 21 81 0F 
09:29:25:9000 Rx 1 0x740 s 8 29 7B 00 B0 50 34 71 03 
09:29:25:9002 Rx 1 0x740 s 8 2A F4 0C 72 44 71 F2 F1 
09:29:25:9004 Rx 1 0x740 s 8 2B E0 7E F1 C0 F7 FF 14 
09:29:25:9007 Rx 1 0x740 s 8 2C 72 04 F4 0C 71 4C F0 
09:29:25:9009 Rx 1 0x740 s 8 2D 2C 70 C3 42 7B 00 5C 
09:29:25:9012 Rx 1 0x740 s 8 2E 50 C3 43 7B 00 78 40 
09:29:25:9014 Rx 1 0x740 s 8 2F 8D 70 34 72 46 00 0D 
09:29:25:9016 Rx 1 0x740 s 8 20 00 54 22 00 0A 38 62 
09:29:25:9019 Rx 1 0x740 s 8 21 50 10 80 00 14 71 19 
09:29:25:9021 Rx 1 0x740 s 8 22 F4 20 4B 08 18 01 00 
09:29:25:9024 Rx 1 0x740 s 8 23 20 4B 02 80 14 70 02 
09:29:25:9026 Rx 1 0x740 s 8 24 F2 FD F1 20 4B 00 18 
09:29:25:9028 Rx 1 0x740 s 8 25 C1 01 20 4B 85 A0 20 
09:29:25:9031 Rx 1 0x740 s 8 26 4B 84 A0 20 4B F0 18 
09:29:25:9033 Rx 1 0x740 s 8 27 00 03 54 22 00 0A 38 
09:29:25:9035 Rx 1 0x740 s 8 28 62 50 18 02 03 24 71 
09:29:25:9038 Rx 1 0x740 s 8 29 DE F1 6C 70 70 78 14 
09:29:25:9040 Rx 1 0x740 s 8 2A 74 10 F7 70 79 55 22 
09:29:25:9042 Rx 1 0x740 s 8 2B 40 0A 14 22 40 00 A4 
09:29:25:9045 Rx 1 0x740 s 8 2C 18 C5 0F 00 21 80 0F 
09:29:25:9047 Rx 1 0x740 s 8 2D 7B 00 0A 51 00 18 C3 
09:29:25:9049 Rx 1 0x740 s 8 2E 0F 64 71 F0 F1 0C 70 
09:29:25:9052 Rx 1 0x740 s 8 2F A0 1A 04 00 A2 1A 04 
09:29:25:9054 Rx 1 0x740 s 8 20 00 C3 41 7B 00 6C 74 
09:29:25:9056 Rx 1 0x740 s 8 21 00 A1 00 A2 9E 1A 02 
09:29:25:9059 Rx 1 0x740 s 8 22 00 D1 C0 E0 7E 32 20 
09:29:25:9061 Rx 1 0x740 s 8 23 80 0F 7B 00 EC 50 E0 
09:29:25:9064 Rx 1 0x740 s 8 24 7E E0 78 5F 20 80 01 
09:29:25:9066 Rx 1 0x740 s 8 25 32 20 80 0F 7B 00 B0 
09:29:25:9068 Rx 1 0x740 s 8 26 50 E0 7E E0 78 14 71 
09:29:25:9071 Rx 1 0x740 s 8 27 07 F4 00 8B 14 70 03 
09:29:25:9073 Rx 1 0x740 s 8 28 F4 00 1B 43 00 E0 7E 
09:29:25:9076 Rx 1 0x740 s 8 29 E6 C3 A1 C1 68 47 48 
09:29:25:9078 Rx 1 0x740 s 8 2A 40 28 43 08 46 03 1C 
09:29:25:9080 Rx 1 0x740 s 8 2B 03 30 CB 45 7B 00 5C 
09:29:25:9083 Rx 1 0x740 s 8 2C 50 00 85 02 80 94 6E 
09:29:25:9085 Rx 1 0x740 s 8 2D 1C 64 01 8C 79 20 00 
09:29:25:9087 Rx 1 0x740 s 8 2E 00 2C 75 0A DA 40 24 
09:29:25:9090 Rx 1 0x740 s 8 2F C3 30 F1 FF 04 94 3F 
09:29:25:9092 Rx 1 0x740 s 8 20 27 00 10 0D DA 40 24 
09:29:25:9094 Rx 1 0x740 s 8 21 C3 30 EE FF 03 14 80 
09:29:25:9097 Rx 1 0x740 s 8 22 30 91 E8 9C 15 00 11 
09:29:25:9099 Rx 1 0x740 s 8 23 10 4E 5F 20 01 03 38 
09:29:25:9101 Rx 1 0x740 s 8 24 65 04 18 C0 02 38 65 
09:29:25:9104 Rx 1 0x740 s 8 25 08 18 00 02 38 65 E6 
09:29:25:9106 Rx 1 0x740 s 8 26 B0 B9 61 0E 19 43 00 
09:29:25:9108 Rx 1 0x740 s 8 27 03 14 80 30 C6 C7 E4 
09:29:25:9111 Rx 1 0x740 s 8 28 C0 CB 44 7B 00 5C 50 
09:29:25:9113 Rx 1 0x740 s 8 29 40 84 62 82 54 68 7A 
09:29:25:9115 Rx 1 0x740 s 8 2A 62 14 24 00 10 1E 90 
09:29:25:9118 Rx 1 0x740 s 8 2B 40 20 43 03 45 92 AD 
09:29:25:9120 Rx 1 0x740 s 8 2C 70 B0 78 50 70 0B F2 
09:29:25:9122 Rx 1 0x740 s 8 2D CE 84 70 78 0E 66 B0 
09:29:25:9125 Rx 1 0x740 s 8 2E 78 38 60 C0 A8 64 71 
09:29:25:9127 Rx 1 0x740 s 8 2F A5 71 F5 F1 0C 70 C4 
09:29:25:9129 Rx 1 0x740 s 8 20 C4 E0 78 41 28 C1 00 
09:29:25:9132 Rx 1 0x740 s 8 21 32 21 82 0F 7B 00 A4 
09:29:25:9134 Rx 1 0x740 s 8 22 50 53 20 81 00 0C 71 
09:29:25:9136 Rx 1 0x740 s 8 23 38 78 44 78 E0 7E 41 
09:29:25:9139 Rx 1 0x740 s 8 24 28 CC 00 34 71 C3 43 
09:29:25:9141 Rx 1 0x740 s 8 25 7B 00 A4 50 09 F4 53 
09:29:25:9143 Rx 1 0x740 s 8 26 20 82 00 79 64 00 89 
09:29:25:9146 Rx 1 0x740 s 8 27 0F 20 80 00 00 A9 0A 
09:29:25:9148 Rx 1 0x740 s 8 28 F0 34 70 08 F4 53 20 
09:29:25:9150 Rx 1 0x740 s 8 29 82 00 79 64 00 89 10 
09:29:25:9154 Rx 1 0x740 s 8 2A 20 80 00 00 A9 E0 7E 
09:29:25:9156 Rx 1 0x740 s 8 2B E0 78 E6 C2 28 43 08 
09:29:25:9158 Rx 1 0x740 s 8 2C 46 CB 45 7B 00 5C 50 
09:29:25:9160 Rx 1 0x740 s 8 2D 00 85 02 80 F4 6E 1F 
09:29:25:9163 Rx 1 0x740 s 8 2E 67 C1 40 E8 FF 0D 71 
09:29:25:9165 Rx 1 0x740 s 8 2F A6 E8 C1 40 2C 71 EB 
09:29:25:9167 Rx 1 0x740 s 8 20 FF 7C 4D F4 20 8C 03 
09:29:25:9170 Rx 1 0x740 s 8 21 E5 97 13 0B 11 10 54 
09:29:25:9172 Rx 1 0x740 s 8 22 25 40 19 DD 65 4A 1D 
09:29:25:9174 Rx 1 0x740 s 8 23 43 10 12 F0 D9 65 0C 
09:29:25:9177 Rx 1 0x740 s 8 24 70 4A 19 03 00 10 79 
09:29:25:9179 Rx 1 0x740 s 8 25 F1 71 0C F2 10 79 32 
09:29:25:9181 Rx 1 0x740 s 8 26 23 43 10 4E 85 90 79 
09:29:25:9184 Rx 1 0x740 s 8 27 59 61 60 A9 85 71 04 
09:29:25:9186 Rx 1 0x740 s 8 28 71 F5 F1 0D 70 C1 40 
09:29:25:9188 Rx 1 0x740 s 8 29 2C 70 DB FF 01 40 C6 
09:29:25:9191 Rx 1 0x740 s 8 2A C6 91 E1 92 F6 40 28 
09:29:25:9193 Rx 1 0x740 s 8 2B 02 06 FF DB 08 BB 04 
09:29:25:9195 Rx 1 0x740 s 8 2C 20 C1 00 08 B9 25 7A 
09:29:25:9198 Rx 1 0x740 s 8 2D 40 2B 01 02 04 79 28 
09:29:25:9200 Rx 1 0x740 s 8 2E B9 45 79 38 B8 25 78 
09:29:25:9202 Rx 1 0x740 s 8 2F 05 F0 2F 28 09 00 30 
09:29:25:9205 Rx 1 0x740 s 8 20 B8 E0 7E 08 43 0C 70 
09:29:25:9207 Rx 1 0x740 s 8 21 8D 70 8F 7A 30 72 4D 
09:29:25:9209 Rx 1 0x740 s 8 22 F6 8F 7A 01 2B 83 10 
09:29:25:9212 Rx 1 0x740 s 8 23 C0 BB 52 7A 3A 62 00 
09:29:25:9214 Rx 1 0x740 s 8 24 2B 82 00 45 78 85 71 
09:29:25:9271 Rx 1 0x748 s 8 02 76 04 FF FF FF FF FF 
09:29:25:9285 Rx 1 0x740 s 8 18 02 36 05 F3 F1 E0 7E 
09:29:25:9391 Rx 1 0x748 s 8 30 00 00 FF FF FF FF FF 
09:29:25:9400 Rx 1 0x740 s 8 21 E6 C2 28 47 CB 45 7B 
09:29:25:9403 Rx 1 0x740 s 8 22 00 5C 50 20 85 22 81 
09:29:25:9405 Rx 1 0x740 s 8 23 D4 68 3E 66 21 8E 2D 
09:29:25:9407 Rx 1 0x740 s 8 24 70 0D 70 CC 70 EC 70 
09:29:25:9410 Rx 1 0x740 s 8 25 6B 09 51 00 FC 4D F4 
09:29:25:9412 Rx 1 0x740 s 8 26 21 01 00 89 E7 44 00 
09:29:25:9414 Rx 1 0x740 s 8 27 0B 00 91 E7 91 F6 1A 
09:29:25:9417 Rx 1 0x740 s 8 28 65 4A 12 82 00 0D 70 
09:29:25:9419 Rx 1 0x740 s 8 29 85 EA 38 15 08 10 00 
09:29:25:9421 Rx 1 0x740 s 8 2A 20 48 10 0A 16 06 11 
09:29:25:9424 Rx 1 0x740 s 8 2B 41 2E 86 00 2D 70 0E 
09:29:25:9426 Rx 1 0x740 s 8 2C F0 1A 65 4A 12 82 00 
09:29:25:9429 Rx 1 0x740 s 8 2D 2D 70 86 EA 38 15 09 
09:29:25:9431 Rx 1 0x740 s 8 2E 10 00 21 49 10 25 96 
09:29:25:9433 Rx 1 0x740 s 8 2F 2F 26 42 00 0D 70 EC 
09:29:25:9436 Rx 1 0x740 s 8 20 70 0F F0 1A 65 4A 12 
09:29:25:9438 Rx 1 0x740 s 8 21 82 00 EC 70 85 EA 38 
09:29:25:9440 Rx 1 0x740 s 8 22 15 07 10 00 27 47 00 
09:29:25:9443 Rx 1 0x740 s 8 23 0A 16 06 11 2D 70 0D 
09:29:25:9445 Rx 1 0x740 s 8 24 70 21 8E 34 70 03 F2 
09:29:25:9447 Rx 1 0x740 s 8 25 26 F0 9C 15 01 11 22 
09:29:25:9450 Rx 1 0x740 s 8 26 78 5F 20 01 03 B9 61 
09:29:25:9452 Rx 1 0x740 s 8 27 2E 89 34 70 04 F4 0C 
09:29:25:9454 Rx 1 0x740 s 8 28 71 55 F0 5F 20 01 03 
09:29:25:9457 Rx 1 0x740 s 8 29 B9 61 0C 11 06 01 89 
09:29:25:9459 Rx 1 0x740 s 8 2A E7 8F F6 91 E7 87 F6 
09:29:25:9461 Rx 1 0x740 s 8 2B 5F 20 00 03 B8 60 04 
09:29:25:9464 Rx 1 0x740 s 8 2C 10 08 00 06 F0 5F 20 
09:29:25:9467 Rx 1 0x740 s 8 2D 00 03 B8 60 04 10 09 
09:29:25:9470 Rx 1 0x740 s 8 2E 00 06 F0 5F 20 00 03 
09:29:25:9473 Rx 1 0x740 s 8 2F B8 60 04 10 07 00 8C 
09:29:25:9476 Rx 1 0x740 s 8 20 70 2F 20 08 01 D0 70 
09:29:25:9477 Rx 1 0x740 s 8 21 34 F2 89 E7 96 F6 91 
09:29:25:9480 Rx 1 0x740 s 8 22 E7 8A F6 15 70 03 F4 
09:29:25:9483 Rx 1 0x740 s 8 23 01 86 05 F0 05 40 E1 
09:29:25:9484 Rx 1 0x740 s 8 24 41 AF FF 05 74 0B F0 
09:29:25:9487 Rx 1 0x740 s 8 25 35 70 04 F4 01 86 07 
09:29:25:9490 Rx 1 0x740 s 8 26 F0 00 11 00 11 E1 41 
09:29:25:9492 Rx 1 0x740 s 8 27 AA FF 25 72 09 F0 F4 
09:29:25:9494 Rx 1 0x740 s 8 28 70 04 F4 01 86 05 F0 
09:29:25:9497 Rx 1 0x740 s 8 29 00 17 80 00 E4 71 2C 
09:29:25:9499 Rx 1 0x740 s 8 2A 8E 34 70 03 F2 03 F0 
09:29:25:9501 Rx 1 0x740 s 8 2B E1 41 AD FF C3 41 7B 
09:29:25:9504 Rx 1 0x740 s 8 2C 00 68 74 40 81 55 25 
09:29:25:9506 Rx 1 0x740 s 8 2D 43 1B 15 25 82 10 B4 
09:29:25:9508 Rx 1 0x740 s 8 2E 1A 00 00 84 71 00 81 
09:29:25:9511 Rx 1 0x740 s 8 2F 04 71 00 A1 CB F1 0C 
09:29:25:9513 Rx 1 0x740 s 8 20 70 C6 C6 E6 C0 6C 70 
09:29:25:9516 Rx 1 0x740 s 8 21 4C 70 CB 44 7B 00 68 
09:29:25:9518 Rx 1 0x740 s 8 22 74 20 84 30 73 2A F2 
09:29:25:9521 Rx 1 0x740 s 8 23 CB 44 7B 00 78 40 01 
09:29:25:9523 Rx 1 0x740 s 8 24 4C 2A 81 44 21 81 00 
09:29:25:9525 Rx 1 0x740 s 8 25 34 72 03 F2 FA F1 F0 
09:29:25:9528 Rx 1 0x740 s 8 26 26 CD 70 7B 00 10 51 
09:29:25:9530 Rx 1 0x740 s 8 27 01 4C B8 A1 64 71 01 
09:29:25:9532 Rx 1 0x740 s 8 28 4C A9 81 99 E5 43 F7 
09:29:25:9535 Rx 1 0x740 s 8 29 13 F0 CD 70 B1 76 11 
09:29:25:9537 Rx 1 0x740 s 8 2A F2 01 4C 28 81 8A E1 
09:29:25:9540 Rx 1 0x740 s 8 2B 03 F7 0B F0 01 4C F8 
09:29:25:9542 Rx 1 0x740 s 8 2C 81 15 26 81 70 7B 00 
09:29:25:9544 Rx 1 0x740 s 8 2D BC 62 E0 A1 44 71 C5 
09:29:25:9547 Rx 1 0x740 s 8 2E 71 F0 F1 D3 F1 20 84 
09:29:25:9548 Rx 1 0x740 s 8 2F 30 72 12 F2 C3 43 7B 
09:29:25:9551 Rx 1 0x740 s 8 20 00 78 40 01 4B 29 81 
09:29:25:9554 Rx 1 0x740 s 8 21 34 70 03 F4 09 F0 01 
09:29:25:9556 Rx 1 0x740 s 8 22 4B 78 81 15 26 81 70 
09:29:25:9558 Rx 1 0x740 s 8 23 7B 00 BC 62 60 A1 44 
09:29:25:9561 Rx 1 0x740 s 8 24 71 EE F1 C6 C4 E0 78 
09:29:25:9563 Rx 1 0x740 s 8 25 E6 C0 CB 43 7B 00 5C 
09:29:25:9565 Rx 1 0x740 s 8 26 50 65 42 44 82 5F 21 
09:29:25:9568 Rx 1 0x740 s 8 27 0E 0A 5E 66 E9 86 0C 
09:29:25:9570 Rx 1 0x740 s 8 28 16 08 11 10 16 06 10 
09:29:25:9572 Rx 1 0x740 s 8 29 35 8E 34 70 E6 F4 2E 
09:29:25:9575 Rx 1 0x740 s 8 2A 8E 34 71 0E F4 C3 42 
09:29:25:9577 Rx 1 0x740 s 8 2B 7B 00 78 40 01 4A 2A 
09:29:25:9579 Rx 1 0x740 s 8 2C 81 44 21 01 02 34 70 
09:29:25:9582 Rx 1 0x740 s 8 2D 04 F2 01 4A 38 81 F9 
09:29:25:9584 Rx 1 0x740 s 8 2E F1 CB 45 7B 00 78 40 
09:29:25:9586 Rx 1 0x740 s 8 2F 01 4D 2A 81 44 21 81 
09:29:25:9589 Rx 1 0x740 s 8 20 00 34 70 02 F4 FB F1 
09:29:25:9591 Rx 1 0x740 s 8 21 01 4D 60 19 00 02 2F 
09:29:25:9593 Rx 1 0x740 s 8 22 8E 6C 71 0D E9 01 4D 
09:29:25:9596 Rx 1 0x740 s 8 23 2A 81 44 21 81 00 34 
09:29:25:9598 Rx 1 0x740 s 8 24 70 03 F4 FA F1 01 4D 
09:29:25:9600 Rx 1 0x740 s 8 25 60 19 80 01 6C 74 2E 
09:29:25:9603 Rx 1 0x740 s 8 26 8E 34 71 03 F2 12 F0 
09:29:25:9605 Rx 1 0x740 s 8 27 2A 8E 23 B9 3B 63 34 
09:29:25:9607 Rx 1 0x740 s 8 28 70 0E F2 02 4D 4A 82 
09:29:25:9610 Rx 1 0x740 s 8 29 44 22 82 00 54 70 03 
09:29:25:9612 Rx 1 0x740 s 8 2A F4 FA F1 02 4D 60 1A 
09:29:25:9614 Rx 1 0x740 s 8 2B 01 00 24 77 F4 F1 2E 
09:29:25:9617 Rx 1 0x740 s 8 2C 8E 8D 70 1A E9 8D 70 
09:29:25:9619 Rx 1 0x740 s 8 2D 01 4D 2A 81 44 21 81 
09:29:25:9621 Rx 1 0x740 s 8 2E 00 34 70 14 F2 C3 41 
09:29:25:9624 Rx 1 0x740 s 8 2F 7B 00 68 74 20 81 30 
09:29:25:9626 Rx 1 0x740 s 8 20 74 0C F2 55 23 41 1B 
09:29:25:9628 Rx 1 0x740 s 8 21 15 23 01 13 B4 11 02 
09:29:25:9631 Rx 1 0x740 s 8 22 00 01 4D 58 A1 85 71 
09:29:25:9633 Rx 1 0x740 s 8 23 03 F0 02 F0 EA F1 21 
09:29:25:9636 Rx 1 0x740 s 8 24 87 4C 71 38 7A 01 4D 
09:29:25:9638 Rx 1 0x740 s 8 25 44 A1 2E 8E 07 09 50 
09:29:25:9640 Rx 1 0x740 s 8 26 00 45 F0 74 70 0F F2 
09:29:25:9643 Rx 1 0x740 s 8 27 01 4D 2A 81 44 21 01 
09:29:25:9645 Rx 1 0x740 s 8 28 02 34 70 02 F4 FB F1 
09:29:25:9647 Rx 1 0x740 s 8 29 01 4D 38 81 01 4D 60 
09:29:25:9650 Rx 1 0x740 s 8 2A 19 01 00 64 77 F1 F1 
09:29:25:9652 Rx 1 0x740 s 8 2B 2D 70 C3 43 7B 00 68 
09:29:25:9655 Rx 1 0x740 s 8 2C 74 20 83 30 74 1B F2 
09:29:25:9657 Rx 1 0x740 s 8 2D 01 4D 2A 81 44 21 01 
09:29:25:9659 Rx 1 0x740 s 8 2E 02 34 70 03 F4 FA F1 
09:29:25:9662 Rx 1 0x740 s 8 2F 01 4D 58 81 15 26 41 
09:29:25:9664 Rx 1 0x740 s 8 20 72 7B 00 BC 62 40 A1 
09:29:25:9666 Rx 1 0x740 s 8 21 25 71 55 23 41 1B 15 
09:29:25:9669 Rx 1 0x740 s 8 22 23 01 13 B4 11 02 00 
09:29:25:9671 Rx 1 0x740 s 8 23 01 4D 58 A1 85 71 E5 
09:29:25:9673 Rx 1 0x740 s 8 24 F1 20 83 0C 21 40 90 
09:29:25:9675 Rx 1 0x740 s 8 25 11 F2 01 4D 2A 81 44 
09:29:25:9678 Rx 1 0x740 s 8 26 21 01 02 34 70 02 F4 
09:29:25:9680 Rx 1 0x740 s 8 27 FB F1 01 4D 58 81 15 
09:29:25:9682 Rx 1 0x740 s 8 28 26 41 72 7B 00 BC 62 
09:29:25:9685 Rx 1 0x740 s 8 29 40 A1 25 71 ED F1 2E 
09:29:25:9687 Rx 1 0x740 s 8 2A 8E 34 72 21 F4 C3 41 
09:29:25:9689 Rx 1 0x740 s 8 2B 7B 00 68 74 20 81 30 
09:29:25:9692 Rx 1 0x740 s 8 2C 74 1B F2 01 4D 2A 81 
09:29:25:9694 Rx 1 0x740 s 8 2D 44 21 01 02 34 70 03 
09:29:25:9696 Rx 1 0x740 s 8 2E F4 FA F1 01 4D 38 81 
09:29:25:9699 Rx 1 0x740 s 8 2F 01 4D 2A 81 44 21 81 
09:29:25:9701 Rx 1 0x740 s 8 20 00 34 70 02 F4 FB F1 
09:29:25:9703 Rx 1 0x740 s 8 21 55 23 41 1B 15 23 01 
09:29:25:9706 Rx 1 0x740 s 8 22 13 B4 11 02 00 01 4D 
09:29:25:9708 Rx 1 0x740 s 8 23 58 A1 E2 F1 01 4D 2A 
09:29:25:9710 Rx 1 0x740 s 8 24 81 44 21 02 01 2C 71 
09:29:25:9713 Rx 1 0x740 s 8 25 03 EA 01 4D 2A 81 C0 
09:29:25:9716 Rx 1 0x740 s 8 26 B9 34 70 03 F2 F5 F1 
09:29:25:9717 Rx 1 0x740 s 8 27 61 87 01 4D 44 81 10 
09:29:25:9720 Rx 1 0x740 s 8 28 22 C2 00 44 A1 01 4D 
09:29:25:9723 Rx 1 0x740 s 8 29 2A 81 44 21 01 02 34 
09:29:25:9724 Rx 1 0x740 s 8 2A 70 04 F2 01 4D 38 81 
09:29:25:9727 Rx 1 0x740 s 8 2B F9 F1 35 8E 34 71 71 
09:29:25:9730 Rx 1 0x740 s 8 2C F4 C3 42 7B 00 78 40 
09:29:25:9732 Rx 1 0x740 s 8 2D 01 4A 2A 81 44 21 81 
09:29:25:9734 Rx 1 0x740 s 8 2E 00 34 70 03 F4 FA F1 
09:29:25:9737 Rx 1 0x740 s 8 2F 01 4A 60 19 00 02 2F 
09:29:25:9739 Rx 1 0x740 s 8 20 8E 34 70 0B F2 01 4A 
09:29:25:9741 Rx 1 0x740 s 8 21 2A 81 44 21 81 00 34 
09:29:25:9744 Rx 1 0x740 s 8 22 70 02 F4 FB F1 01 4A 
09:29:25:9746 Rx 1 0x740 s 8 23 60 19 80 01 2E 8E 6C 
09:29:25:9748 Rx 1 0x740 s 8 24 70 1B E9 6C 70 01 4A 
09:29:25:9751 Rx 1 0x740 s 8 25 2A 81 44 21 81 00 34 
09:29:25:9753 Rx 1 0x740 s 8 26 70 13 F2 C3 41 7B 00 
09:29:25:9755 Rx 1 0x740 s 8 27 68 74 20 81 30 73 0B 
09:29:25:9758 Rx 1 0x740 s 8 28 F2 55 23 41 1B 15 23 
09:29:25:9760 Rx 1 0x740 s 8 29 C1 10 B4 11 0C 00 01 
09:29:25:9762 Rx 1 0x740 s 8 2A 4A 98 A1 64 71 02 F0 
09:29:25:9765 Rx 1 0x740 s 8 2B 03 F0 E9 F1 81 87 2C 
09:29:25:9767 Rx 1 0x740 s 8 2C 71 00 29 0C 03 01 4A 
09:29:25:9769 Rx 1 0x740 s 8 2D 84 A1 2E 8E 18 E9 C3 
09:29:25:9772 Rx 1 0x740 s 8 2E 41 7B 00 68 74 20 81 
09:29:25:9774 Rx 1 0x740 s 8 2F 30 73 12 F2 01 4A 2A 
09:29:25:9776 Rx 1 0x740 s 8 20 81 44 21 81 00 34 70 
09:29:25:9779 Rx 1 0x740 s 8 21 02 F4 FB F1 55 23 41 
09:29:25:9781 Rx 1 0x740 s 8 22 1B 15 23 C1 10 B4 11 
09:29:25:9783 Rx 1 0x740 s 8 23 0C 00 01 4A 98 A1 64 
09:29:25:9786 Rx 1 0x740 s 8 24 71 EB F1 01 4A 2A 81 
09:29:25:9788 Rx 1 0x740 s 8 25 44 21 03 01 2C 71 05 
09:29:25:9790 Rx 1 0x740 s 8 26 EB 01 4A 2A 81 C0 B9 
09:29:25:9793 Rx 1 0x740 s 8 27 34 70 02 F2 F6 F1 01 
09:29:25:9795 Rx 1 0x740 s 8 28 4A 2A 81 44 21 01 02 
09:29:25:9797 Rx 1 0x740 s 8 29 34 70 05 F2 01 4A 38 
09:29:25:9800 Rx 1 0x740 s 8 2A 81 F8 F1 61 87 02 4A 
09:29:25:9802 Rx 1 0x740 s 8 2B 24 82 10 21 C1 00 24 
09:29:25:9804 Rx 1 0x740 s 8 2C A2 35 8E 34 72 80 F4 
09:29:25:9807 Rx 1 0x740 s 8 2D C3 43 7B 00 78 40 01 
09:29:25:9809 Rx 1 0x740 s 8 2E 4B 2A 81 44 21 01 02 
09:29:25:9812 Rx 1 0x740 s 8 2F 34 70 04 F2 01 4B 38 
09:29:25:9814 Rx 1 0x740 s 8 20 81 F9 F1 A4 86 86 86 
09:29:25:9816 Rx 1 0x740 s 8 21 2D 70 4A 20 00 18 95 
09:29:25:9819 Rx 1 0x740 s 8 22 70 63 F2 11 74 42 F7 
09:29:25:9820 Rx 1 0x740 s 8 23 89 40 01 4B 08 19 01 
09:29:25:9823 Rx 1 0x740 s 8 24 00 01 4B 22 81 34 70 
09:29:25:9826 Rx 1 0x740 s 8 25 02 F2 FD F1 42 20 42 
09:29:25:9828 Rx 1 0x740 s 8 26 10 01 4B 41 A1 01 4B 
09:29:25:9830 Rx 1 0x740 s 8 27 08 19 41 00 01 4B 22 
09:29:25:9833 Rx 1 0x740 s 8 28 81 34 71 02 F2 FD F1 
09:29:25:9835 Rx 1 0x740 s 8 29 46 96 01 4B 2A 81 44 
09:29:25:9837 Rx 1 0x740 s 8 2A 21 81 00 34 70 02 F4 
09:29:25:9840 Rx 1 0x740 s 8 2B FB F1 01 4B 58 A1 2F 
09:29:25:9842 Rx 1 0x740 s 8 2C 8E 34 70 0A F2 01 4B 
09:29:25:9844 Rx 1 0x740 s 8 2D 2A 81 44 21 81 00 34 
09:29:25:9847 Rx 1 0x740 s 8 2E 70 02 F4 FB F1 01 4B 
09:29:25:9849 Rx 1 0x740 s 8 2F B8 A1 41 87 2C 71 00 
09:29:25:9851 Rx 1 0x740 s 8 20 29 82 00 01 4B 44 A1 
09:29:25:9854 Rx 1 0x740 s 8 21 09 43 75 70 12 F2 01 
09:29:25:9856 Rx 1 0x740 s 8 22 4B 2A 81 44 21 01 02 
09:29:25:9858 Rx 1 0x740 s 8 23 34 70 02 F4 FB F1 01 
09:29:25:9861 Rx 1 0x740 s 8 24 4B 58 81 15 26 41 72 
09:29:25:9863 Rx 1 0x740 s 8 25 7B 00 BC 62 40 A1 25 
09:29:25:9865 Rx 1 0x740 s 8 26 71 65 77 EF F1 28 8E 
09:29:25:9868 Rx 1 0x740 s 8 27 23 B9 1A 20 41 10 3D 
09:29:25:9870 Rx 1 0x740 s 8 28 65 02 24 0C 12 01 4B 
09:29:25:9872 Rx 1 0x740 s 8 29 2A 81 44 21 02 01 2C 
09:29:25:9875 Rx 1 0x740 s 8 2A 71 04 EA 01 4B 2A 81 
09:29:25:9877 Rx 1 0x740 s 8 2B C0 B9 34 70 03 F2 F5 
09:29:25:9879 Rx 1 0x740 s 8 2C F1 04 17 0B 10 01 4B 
09:29:25:9882 Rx 1 0x740 s 8 2D 44 81 10 22 C2 02 44 
09:29:25:9884 Rx 1 0x740 s 8 2E A1 9D F1 01 4B 2A 81 
09:29:25:9886 Rx 1 0x740 s 8 2F 44 21 01 02 34 70 04 
09:29:25:9889 Rx 1 0x740 s 8 20 F2 01 4B 38 81 F9 F1 
09:29:25:9892 Rx 1 0x740 s 8 21 C6 C4 E0 78 E6 C2 28 
09:29:25:9893 Rx 1 0x740 s 8 22 47 C3 42 7B 00 5C 50 
09:29:25:9896 Rx 1 0x740 s 8 23 20 82 62 81 34 68 79 
09:29:25:9899 Rx 1 0x740 s 8 24 61 61 89 0D 70 AD 70 
09:29:25:9900 Rx 1 0x740 s 8 25 6D 70 CD 70 47 0B 51 
09:29:25:9903 Rx 1 0x740 s 8 26 00 14 22 03 00 7E 93 
09:29:25:9905 Rx 1 0x740 s 8 27 0D E3 89 E7 95 F6 91 
09:29:25:9908 Rx 1 0x740 s 8 28 E7 89 F6 8E 82 70 7D 
09:29:25:9910 Rx 1 0x740 s 8 29 9D 65 C5 91 22 BE 0D 
09:29:25:9912 Rx 1 0x740 s 8 2A 70 09 F0 8E 82 2F 20 
09:29:25:9915 Rx 1 0x740 s 8 2B C8 10 00 20 08 13 65 
09:29:25:9917 Rx 1 0x740 s 8 2C 91 7D 7E AD 70 6D 70 
09:29:25:9920 Rx 1 0x740 s 8 2D 09 F0 8E 82 2F 23 C8 
09:29:25:9922 Rx 1 0x740 s 8 2E 10 00 23 0B 13 C5 91 
09:29:25:9924 Rx 1 0x740 s 8 2F 0D 70 AD 70 21 89 34 
09:29:25:9927 Rx 1 0x740 s 8 20 70 03 F2 1C F0 9C 12 
09:29:25:9929 Rx 1 0x740 s 8 21 01 01 22 78 5F 20 01 
09:29:25:9931 Rx 1 0x740 s 8 22 03 59 61 C6 91 89 E7 
09:29:25:9934 Rx 1 0x740 s 8 23 8F F6 91 E7 87 F6 5F 
09:29:25:9936 Rx 1 0x740 s 8 24 20 00 03 58 60 A2 80 
09:29:25:9938 Rx 1 0x740 s 8 25 06 F0 5F 20 00 03 58 
09:29:25:9941 Rx 1 0x740 s 8 26 60 08 10 08 00 06 F0 
09:29:25:9943 Rx 1 0x740 s 8 27 5F 20 00 03 58 60 08 
09:29:25:9945 Rx 1 0x740 s 8 28 10 0B 00 2D 70 CB 44 
09:29:25:9948 Rx 1 0x740 s 8 29 7B 00 68 74 2F 20 48 
09:29:25:9950 Rx 1 0x740 s 8 2A 02 D1 70 27 F2 00 84 
09:29:25:9952 Rx 1 0x740 s 8 2B F0 26 00 70 7B 00 BC 
09:29:25:9955 Rx 1 0x740 s 8 2C 62 89 E7 94 F6 91 E7 
09:29:25:9957 Rx 1 0x740 s 8 2D 89 F6 B5 70 02 F4 06 
09:29:25:9959 Rx 1 0x740 s 8 2E F0 E1 41 4D FE 00 A5 
09:29:25:9962 Rx 1 0x740 s 8 2F A5 74 09 F0 15 70 02 
09:29:25:9964 Rx 1 0x740 s 8 20 F4 07 F0 E1 41 49 FE 
09:29:25:9967 Rx 1 0x740 s 8 21 00 18 04 10 05 72 08 
09:29:25:9969 Rx 1 0x740 s 8 22 F0 75 70 03 F4 04 F0 
09:29:25:9972 Rx 1 0x740 s 8 23 00 1B 02 10 65 71 25 
09:29:25:9974 Rx 1 0x740 s 8 24 71 00 84 04 71 00 A4 
09:29:25:9976 Rx 1 0x740 s 8 25 D8 F1 C6 C6 EE C2 10 
09:29:25:9979 Rx 1 0x740 s 8 26 41 D3 40 7B 00 5C 50 
09:29:25:9981 Rx 1 0x740 s 8 27 55 20 00 29 54 20 00 
09:29:25:9983 Rx 1 0x740 s 8 28 2A 06 40 04 80 5F 21 
09:29:25:9986 Rx 1 0x740 s 8 29 0F 2A 1F 67 00 20 40 
09:29:25:9988 Rx 1 0x740 s 8 2A 24 90 18 43 00 24 17 
09:29:25:9990 Rx 1 0x740 s 8 2B 05 10 0C 15 0E 00 00 
09:29:25:9993 Rx 1 0x740 s 8 2C 20 80 23 50 18 83 00 
09:29:25:9995 Rx 1 0x740 s 8 2D D3 43 7B 00 68 74 00 
09:29:25:9997 Rx 1 0x740 s 8 2E 1B 01 20 12 15 80 00 
09:29:26:0000 Rx 1 0x740 s 8 2F 14 71 05 F4 15 8F 4E 
09:29:26:0002 Rx 1 0x740 s 8 20 70 3F 08 90 00 4A 26 
09:29:26:0004 Rx 1 0x740 s 8 21 00 30 4E 70 28 87 2F 
09:29:26:0007 Rx 1 0x740 s 8 22 20 87 07 08 61 8C 20 
09:29:26:0009 Rx 1 0x740 s 8 23 C3 8F 13 F2 28 87 2F 
09:29:26:0012 Rx 1 0x740 s 8 24 20 87 07 08 61 28 8F 
09:29:26:0014 Rx 1 0x740 s 8 25 39 FE 10 42 56 71 08 
09:29:26:0016 Rx 1 0x740 s 8 26 F4 54 20 00 2A 02 76 
09:29:26:0019 Rx 1 0x740 s 8 27 50 1E 43 10 B7 F0 40 
09:29:26:0021 Rx 1 0x740 s 8 28 26 5E 30 E8 F1 CB 45 
09:29:26:0023 Rx 1 0x740 s 8 29 7B 00 78 40 C0 4D 0A 
09:29:26:0025 Rx 1 0x740 s 8 2A 80 C0 B8 14 70 02 F2 
09:29:26:0028 Rx 1 0x740 s 8 2B FC F1 C0 4D 08 18 01 
09:29:26:0030 Rx 1 0x740 s 8 2C 00 C0 4D 02 80 14 70 
09:29:26:0033 Rx 1 0x740 s 8 2D 02 F2 FD F1 C1 4D 07 
09:29:26:0035 Rx 1 0x740 s 8 2E D8 10 B8 00 A1 08 15 
09:29:26:0037 Rx 1 0x740 s 8 2F 80 00 14 70 C1 4D 00 
09:29:26:0040 Rx 1 0x740 s 8 20 81 CF 20 A2 01 00 A1 
09:29:26:0042 Rx 1 0x740 s 8 21 10 15 80 00 14 70 C1 
09:29:26:0044 Rx 1 0x740 s 8 22 4D 00 81 CF 20 E2 01 
09:29:26:0047 Rx 1 0x740 s 8 23 00 A1 6E 41 A4 40 05 
09:29:26:0049 Rx 1 0x740 s 8 24 29 01 00 C0 4D 25 A0 
09:29:26:0052 Rx 1 0x740 s 8 25 11 15 81 00 C0 4D F0 
09:29:26:0054 Rx 1 0x740 s 8 26 18 40 00 C0 4D 00 80 
09:29:26:0057 Rx 1 0x740 s 8 27 04 20 80 0F 80 FF FF 
09:29:26:0059 Rx 1 0x740 s 8 28 FF 12 15 81 00 34 71 
09:29:26:0061 Rx 1 0x740 s 8 29 02 F2 14 F0 29 8F 34 
09:29:26:0064 Rx 1 0x740 s 8 2A 71 02 F4 96 B8 35 8F 
09:29:26:0066 Rx 1 0x740 s 8 2B 34 70 02 F4 0C F0 35 
09:29:26:0068 Rx 1 0x740 s 8 2C 8F 34 71 03 F4 88 B8 
09:29:26:0071 Rx 1 0x740 s 8 2D 06 F0 35 8F 34 72 04 
09:29:26:0073 Rx 1 0x740 s 8 2E F4 85 20 0C 00 28 8F 
09:29:26:0075 Rx 1 0x740 s 8 2F 10 B9 C3 71 FF FF 00 
09:29:26:0078 Rx 1 0x740 s 8 20 00 05 79 C0 4D 20 A0 
09:29:26:0080 Rx 1 0x740 s 8 21 12 15 80 00 14 71 17 
09:29:26:0082 Rx 1 0x740 s 8 22 F4 C0 4D F4 10 00 00 
09:29:26:0085 Rx 1 0x740 s 8 23 04 20 81 0F FF FF C0 
09:29:26:0087 Rx 1 0x740 s 8 24 04 0A 8F 0B B8 25 78 
09:29:26:0152 Rx 1 0x748 s 8 02 76 05 FF FF FF FF FF 
09:29:26:0168 Rx 1 0x740 s 8 18 02 36 06 2B 8F 08 B9 
09:29:26:0272 Rx 1 0x748 s 8 30 00 00 FF FF FF FF FF 
09:29:26:0281 Rx 1 0x740 s 8 21 05 79 0F 8F 02 B8 25 
09:29:26:0283 Rx 1 0x740 s 8 22 78 34 8F 05 79 C0 4D 
09:29:26:0286 Rx 1 0x740 s 8 23 F4 18 40 00 C0 4D 08 
09:29:26:0288 Rx 1 0x740 s 8 24 18 41 00 C0 4D 02 80 
09:29:26:0290 Rx 1 0x740 s 8 25 14 71 03 F2 FC F1 12 
09:29:26:0293 Rx 1 0x740 s 8 26 15 80 00 14 71 0F F2 
09:29:26:0295 Rx 1 0x740 s 8 27 AC 40 2C 71 18 79 C0 
09:29:26:0297 Rx 1 0x740 s 8 28 4D 24 A0 C1 40 46 FE 
09:29:26:0300 Rx 1 0x740 s 8 29 AC 41 C0 4D 44 80 10 
09:29:26:0302 Rx 1 0x740 s 8 2A 22 41 00 24 A0 04 F0 
09:29:26:0304 Rx 1 0x740 s 8 2B C1 40 22 41 65 FE 12 
09:29:26:0307 Rx 1 0x740 s 8 2C 15 80 00 14 71 05 F4 
09:29:26:0309 Rx 1 0x740 s 8 2D 15 8F 14 71 11 F2 AD 
09:29:26:0311 Rx 1 0x740 s 8 2E 70 00 1B 01 20 28 87 
09:29:26:0314 Rx 1 0x740 s 8 2F AF 78 08 61 8C 20 C3 
09:29:26:0316 Rx 1 0x740 s 8 20 8F 09 F2 28 87 AF 78 
09:29:26:0318 Rx 1 0x740 s 8 21 08 61 28 8F 50 FF A5 
09:29:26:0321 Rx 1 0x740 s 8 22 71 F4 F1 54 20 00 2A 
09:29:26:0323 Rx 1 0x740 s 8 23 55 20 00 29 00 21 11 
09:29:26:0325 Rx 1 0x740 s 8 24 24 90 19 03 20 02 76 
09:29:26:0328 Rx 1 0x740 s 8 25 50 1E 43 10 01 87 14 
09:29:26:0331 Rx 1 0x740 s 8 26 70 03 F2 01 87 40 78 
09:29:26:0332 Rx 1 0x740 s 8 27 2F 20 87 04 CE C6 EA 
09:29:26:0335 Rx 1 0x740 s 8 28 C3 A1 C1 10 40 03 1C 
09:29:26:0338 Rx 1 0x740 s 8 29 03 30 64 FD 14 71 04 
09:29:26:0340 Rx 1 0x740 s 8 2A F4 0C 71 F5 F0 D3 41 
09:29:26:0342 Rx 1 0x740 s 8 2B 7B 00 78 40 0E 11 80 
09:29:26:0345 Rx 1 0x740 s 8 2C 20 14 71 0A F4 0C 71 
09:29:26:0347 Rx 1 0x740 s 8 2D 0A D9 3A DA 40 24 C3 
09:29:26:0349 Rx 1 0x740 s 8 2E 30 5F FD 03 14 80 30 
09:29:26:0352 Rx 1 0x740 s 8 2F E5 F0 CB 47 7B 00 5C 
09:29:26:0354 Rx 1 0x740 s 8 20 50 00 87 05 80 40 28 
09:29:26:0356 Rx 1 0x740 s 8 21 0E 21 1E 66 6C 70 6F 
09:29:26:0358 Rx 1 0x740 s 8 22 78 89 E0 76 00 0D 00 
09:29:26:0361 Rx 1 0x740 s 8 23 6F 78 12 70 03 F4 33 
09:29:26:0363 Rx 1 0x740 s 8 24 F0 6F 78 50 FD 14 71 
09:29:26:0365 Rx 1 0x740 s 8 25 2F F4 00 87 45 80 6F 
09:29:26:0368 Rx 1 0x740 s 8 26 78 34 68 59 61 6D 70 
09:29:26:0370 Rx 1 0x740 s 8 27 43 86 2F 20 C8 02 F4 
09:29:26:0372 Rx 1 0x740 s 8 28 22 00 00 D3 70 00 00 
09:29:26:0375 Rx 1 0x740 s 8 29 FF FF 21 F2 43 86 2F 
09:29:26:0378 Rx 1 0x740 s 8 2A 20 C8 02 F4 22 08 00 
09:29:26:0380 Rx 1 0x740 s 8 2B 4C 70 83 81 50 78 F4 
09:29:26:0382 Rx 1 0x740 s 8 2C 24 00 10 D3 70 00 00 
09:29:26:0385 Rx 1 0x740 s 8 2D FF FF 11 F2 83 81 50 
09:29:26:0387 Rx 1 0x740 s 8 2E 78 F4 24 00 10 0C 20 
09:29:26:0389 Rx 1 0x740 s 8 2F 00 90 07 F4 01 40 39 
09:29:26:0392 Rx 1 0x740 s 8 20 FD 14 71 03 F4 0C 71 
09:29:26:0394 Rx 1 0x740 s 8 21 A5 F0 44 71 EA F1 65 
09:29:26:0396 Rx 1 0x740 s 8 22 71 D9 F1 64 71 C5 F1 
09:29:26:0399 Rx 1 0x740 s 8 23 0E 19 43 20 9E 1F 83 
09:29:26:0401 Rx 1 0x740 s 8 24 10 5F 20 80 21 F8 60 
09:29:26:0404 Rx 1 0x740 s 8 25 54 18 43 00 2C 70 43 
09:29:26:0406 Rx 1 0x740 s 8 26 86 30 78 F4 22 00 00 
09:29:26:0409 Rx 1 0x740 s 8 27 D3 70 00 00 FF FF 18 
09:29:26:0411 Rx 1 0x740 s 8 28 F2 43 86 30 78 F4 22 
09:29:26:0413 Rx 1 0x740 s 8 29 02 00 54 27 00 1A 55 
09:29:26:0416 Rx 1 0x740 s 8 2A 27 00 19 58 67 90 18 
09:29:26:0418 Rx 1 0x740 s 8 2B 43 00 00 87 64 80 5F 
09:29:26:0420 Rx 1 0x740 s 8 2C 22 00 0A 78 60 09 80 
09:29:26:0423 Rx 1 0x740 s 8 2D 03 80 F8 60 50 18 83 
09:29:26:0425 Rx 1 0x740 s 8 2E 00 24 71 E3 F1 9F 1F 
09:29:26:0427 Rx 1 0x740 s 8 2F 43 10 5F 20 80 21 F8 
09:29:26:0430 Rx 1 0x740 s 8 20 60 AD 70 58 18 05 00 
09:29:26:0432 Rx 1 0x740 s 8 21 23 86 B0 78 F4 21 01 
09:29:26:0435 Rx 1 0x740 s 8 22 00 0C 70 3F 09 80 0F 
09:29:26:0437 Rx 1 0x740 s 8 23 00 00 FF FF 23 86 B0 
09:29:26:0439 Rx 1 0x740 s 8 24 78 F4 21 00 00 36 FF 
09:29:26:0442 Rx 1 0x740 s 8 25 03 1C 02 30 03 14 80 
09:29:26:0444 Rx 1 0x740 s 8 26 30 14 71 04 F4 0C 71 
09:29:26:0446 Rx 1 0x740 s 8 27 0F F0 5F 20 80 21 54 
09:29:26:0449 Rx 1 0x740 s 8 28 27 01 1B 19 67 1A 67 
09:29:26:0451 Rx 1 0x740 s 8 29 58 11 00 01 04 71 58 
09:29:26:0453 Rx 1 0x740 s 8 2A 1A 04 00 A5 71 DE F1 
09:29:26:0456 Rx 1 0x740 s 8 2B 14 71 39 F4 AD 70 23 
09:29:26:0458 Rx 1 0x740 s 8 2C 86 B0 78 F4 21 00 00 
09:29:26:0460 Rx 1 0x740 s 8 2D D3 70 00 00 FF FF 22 
09:29:26:0463 Rx 1 0x740 s 8 2E F2 23 86 B0 78 F4 21 
09:29:26:0466 Rx 1 0x740 s 8 2F 01 00 20 40 02 FD 14 
09:29:26:0468 Rx 1 0x740 s 8 20 71 18 F4 54 27 00 1A 
09:29:26:0470 Rx 1 0x740 s 8 21 55 27 00 19 38 67 90 
09:29:26:0473 Rx 1 0x740 s 8 22 18 83 00 00 87 04 80 
09:29:26:0475 Rx 1 0x740 s 8 23 5F 21 01 0A 19 61 09 
09:29:26:0477 Rx 1 0x740 s 8 24 81 03 80 F8 60 50 18 
09:29:26:0480 Rx 1 0x740 s 8 25 43 00 01 81 14 70 04 
09:29:26:0482 Rx 1 0x740 s 8 26 F2 01 81 40 78 A5 71 
09:29:26:0484 Rx 1 0x740 s 8 27 DA F1 5F 20 80 21 54 
09:29:26:0487 Rx 1 0x740 s 8 28 27 81 1A F8 60 54 18 
09:29:26:0489 Rx 1 0x740 s 8 29 83 00 01 86 14 70 04 
09:29:26:0491 Rx 1 0x740 s 8 2A F2 01 86 40 78 03 14 
09:29:26:0494 Rx 1 0x740 s 8 2B 80 30 11 F0 5F 20 80 
09:29:26:0496 Rx 1 0x740 s 8 2C 21 F8 60 54 18 03 00 
09:29:26:0498 Rx 1 0x740 s 8 2D 9E 1F 43 10 0E 19 03 
09:29:26:0501 Rx 1 0x740 s 8 2E 20 01 86 14 70 03 F2 
09:29:26:0503 Rx 1 0x740 s 8 2F 01 86 40 78 03 14 80 
09:29:26:0505 Rx 1 0x740 s 8 20 30 CA C7 21 68 30 78 
09:29:26:0508 Rx 1 0x740 s 8 21 14 75 03 F4 2C 70 30 
09:29:26:0510 Rx 1 0x740 s 8 22 78 E0 7E E0 78 E6 C2 
09:29:26:0513 Rx 1 0x740 s 8 23 C3 43 7B 00 FC 50 80 
09:29:26:0515 Rx 1 0x740 s 8 24 93 41 93 48 45 90 79 
09:29:26:0517 Rx 1 0x740 s 8 25 B0 78 10 71 2D F2 90 
09:29:26:0520 Rx 1 0x740 s 8 26 78 14 23 00 00 02 90 
09:29:26:0522 Rx 1 0x740 s 8 27 D9 FC 14 72 23 F4 89 
09:29:26:0524 Rx 1 0x740 s 8 28 47 89 46 F0 79 B0 78 
09:29:26:0527 Rx 1 0x740 s 8 29 10 71 13 F2 F0 78 F0 
09:29:26:0529 Rx 1 0x740 s 8 2A FF 08 47 24 6B F4 21 
09:29:26:0532 Rx 1 0x740 s 8 2B C2 03 D0 78 14 79 40 
09:29:26:0534 Rx 1 0x740 s 8 2C B1 F9 63 4E 89 19 63 
09:29:26:0536 Rx 1 0x740 s 8 2D 4E A9 EA FF C1 42 08 
09:29:26:0539 Rx 1 0x740 s 8 2E 46 EC F1 D0 78 14 23 
09:29:26:0541 Rx 1 0x740 s 8 2F 01 00 04 19 C5 0F 78 
09:29:26:0543 Rx 1 0x740 s 8 20 60 0E 18 C3 0F 48 45 
09:29:26:0546 Rx 1 0x740 s 8 21 04 F0 90 78 E2 FF 08 
09:29:26:0548 Rx 1 0x740 s 8 22 44 D1 F1 41 B3 C6 C6 
09:29:26:0550 Rx 1 0x740 s 8 23 E0 78 C3 41 7B 00 FC 
09:29:26:0553 Rx 1 0x740 s 8 24 50 40 91 21 91 30 72 
09:29:26:0555 Rx 1 0x740 s 8 25 03 F4 2C 75 08 F0 30 
09:29:26:0557 Rx 1 0x740 s 8 26 72 44 F6 31 4A 24 74 
09:29:26:0560 Rx 1 0x740 s 8 27 04 F0 31 4A 24 77 30 
09:29:26:0562 Rx 1 0x740 s 8 28 79 10 71 C3 F6 0C 70 
09:29:26:0564 Rx 1 0x740 s 8 29 02 F0 0C 71 E0 7E E0 
09:29:26:0567 Rx 1 0x740 s 8 2A 78 E4 C2 20 43 00 42 
09:29:26:0569 Rx 1 0x740 s 8 2B C3 41 7B 00 5C 50 A2 
09:29:26:0571 Rx 1 0x740 s 8 2C 11 00 01 20 81 85 81 
09:29:26:0574 Rx 1 0x740 s 8 2D 34 6A 3C 64 A3 84 70 
09:29:26:0576 Rx 1 0x740 s 8 2E 79 F4 25 41 10 D3 71 
09:29:26:0578 Rx 1 0x740 s 8 2F 00 00 FF FF CB 45 7B 
09:29:26:0581 Rx 1 0x740 s 8 20 00 FE 50 0E F2 C3 84 
09:29:26:0583 Rx 1 0x740 s 8 21 70 79 F4 26 4E 10 10 
09:29:26:0585 Rx 1 0x740 s 8 22 78 14 25 01 10 C1 B1 
09:29:26:0588 Rx 1 0x740 s 8 23 19 65 4C A9 C3 FF 64 
09:29:26:0590 Rx 1 0x740 s 8 24 71 EA F1 00 B5 C4 C6 
09:29:26:0592 Rx 1 0x740 s 8 25 EC C2 D3 41 7B 00 78 
09:29:26:0595 Rx 1 0x740 s 8 26 40 0D 11 80 20 14 70 
09:29:26:0597 Rx 1 0x740 s 8 27 06 F4 0C 11 80 20 14 
09:29:26:0599 Rx 1 0x740 s 8 28 70 07 F2 BE FF 0D 19 
09:29:26:0602 Rx 1 0x740 s 8 29 03 20 0C 19 03 20 CB 
09:29:26:0604 Rx 1 0x740 s 8 2A 45 7B 00 FA 50 21 95 
09:29:26:0606 Rx 1 0x740 s 8 2B 02 95 10 71 76 F2 CB 
09:29:26:0609 Rx 1 0x740 s 8 2C 46 7B 00 5C 50 A0 16 
09:29:26:0611 Rx 1 0x740 s 8 2D 10 11 14 25 00 14 43 
09:29:26:0613 Rx 1 0x740 s 8 2E 90 00 25 00 14 10 10 
09:29:26:0616 Rx 1 0x740 s 8 2F 92 00 00 86 05 80 40 
09:29:26:0619 Rx 1 0x740 s 8 20 2A 0F 21 1F 67 02 40 
09:29:26:0620 Rx 1 0x740 s 8 21 AB FF A0 1E 04 10 40 
09:29:26:0623 Rx 1 0x740 s 8 22 40 AE FE 14 71 35 F4 
09:29:26:0626 Rx 1 0x740 s 8 23 AD 70 23 87 B0 78 F4 
09:29:26:0628 Rx 1 0x740 s 8 24 21 00 00 D3 70 00 00 
09:29:26:0630 Rx 1 0x740 s 8 25 FF FF 1E F2 23 87 B0 
09:29:26:0633 Rx 1 0x740 s 8 26 78 F4 21 01 00 20 40 
09:29:26:0635 Rx 1 0x740 s 8 27 85 FC 14 71 05 F2 0F 
09:29:26:0637 Rx 1 0x740 s 8 28 78 14 73 10 F4 55 26 
09:29:26:0640 Rx 1 0x740 s 8 29 00 19 38 66 90 18 83 
09:29:26:0642 Rx 1 0x740 s 8 2A 00 00 86 44 80 5F 21 
09:29:26:0644 Rx 1 0x740 s 8 2B 00 0A 58 60 21 80 34 
09:29:26:0647 Rx 1 0x740 s 8 2C 70 04 F2 01 80 40 78 
09:29:26:0649 Rx 1 0x740 s 8 2D A5 71 DE F1 5F 22 80 
09:29:26:0651 Rx 1 0x740 s 8 2E 21 54 26 81 1A 1E 66 
09:29:26:0654 Rx 1 0x740 s 8 2F 54 1E 83 10 01 87 14 
09:29:26:0656 Rx 1 0x740 s 8 20 70 04 F2 01 87 40 78 
09:29:26:0658 Rx 1 0x740 s 8 21 0D 19 43 20 27 F0 5F 
09:29:26:0661 Rx 1 0x740 s 8 22 22 81 21 54 26 00 1B 
09:29:26:0663 Rx 1 0x740 s 8 23 38 66 3A 66 3B 66 58 
09:29:26:0665 Rx 1 0x740 s 8 24 10 00 01 04 71 58 1A 
09:29:26:0668 Rx 1 0x740 s 8 25 04 00 14 25 00 14 06 
09:29:26:0670 Rx 1 0x740 s 8 26 18 C5 0F 02 75 10 1D 
09:29:26:0672 Rx 1 0x740 s 8 27 C3 1F 58 13 02 01 D9 
09:29:26:0675 Rx 1 0x740 s 8 28 61 56 11 00 01 10 72 
09:29:26:0677 Rx 1 0x740 s 8 29 0D F4 5F 22 80 21 54 
09:29:26:0679 Rx 1 0x740 s 8 2A 26 81 1A D8 60 54 18 
09:29:26:0682 Rx 1 0x740 s 8 2B 03 00 01 87 14 70 03 
09:29:26:0684 Rx 1 0x740 s 8 2C F2 01 87 40 78 08 F0 
09:29:26:0686 Rx 1 0x740 s 8 2D 00 1D 43 10 02 1D 05 
09:29:26:0689 Rx 1 0x740 s 8 2E 10 04 1D 05 10 CC C6 
09:29:26:0692 Rx 1 0x740 s 8 2F E0 78 E6 C3 A1 C1 08 
09:29:26:0694 Rx 1 0x740 s 8 20 40 03 1C 03 30 5B FC 
09:29:26:0696 Rx 1 0x740 s 8 21 14 71 0B F4 0C 71 2C 
09:29:26:0699 Rx 1 0x740 s 8 22 73 2A DA 40 24 C3 30 
09:29:26:0700 Rx 1 0x740 s 8 23 5B FC 03 14 80 30 99 
09:29:26:0703 Rx 1 0x740 s 8 24 F0 CB 46 7B 00 5C 50 
09:29:26:0706 Rx 1 0x740 s 8 25 00 86 05 80 40 28 0D 
09:29:26:0708 Rx 1 0x740 s 8 26 11 1D 65 8D 70 8F 78 
09:29:26:0710 Rx 1 0x740 s 8 27 89 E0 84 00 0D 00 8F 
09:29:26:0713 Rx 1 0x740 s 8 28 78 11 70 02 F4 3C F0 
09:29:26:0715 Rx 1 0x740 s 8 29 8F 78 4C FC 14 71 38 
09:29:26:0717 Rx 1 0x740 s 8 2A F4 00 86 45 80 8F 78 
09:29:26:0720 Rx 1 0x740 s 8 2B 34 68 59 61 4C 70 63 
09:29:26:0722 Rx 1 0x740 s 8 2C 85 50 78 F4 23 00 00 
09:29:26:0724 Rx 1 0x740 s 8 2D D3 70 00 00 FF FF 2A 
09:29:26:0727 Rx 1 0x740 s 8 2E F2 63 85 50 78 F4 23 
09:29:26:0729 Rx 1 0x740 s 8 2F 0B 00 6C 70 E3 81 70 
09:29:26:0731 Rx 1 0x740 s 8 20 78 F4 27 00 10 D3 70 
09:29:26:0734 Rx 1 0x740 s 8 21 00 00 FF FF 1A F2 E3 
09:29:26:0736 Rx 1 0x740 s 8 22 81 70 78 F4 27 00 10 
09:29:26:0738 Rx 1 0x740 s 8 23 0C 23 00 90 12 F4 61 
09:29:26:0741 Rx 1 0x740 s 8 24 40 36 FC 14 71 05 F2 
09:29:26:0743 Rx 1 0x740 s 8 25 0F 78 14 73 0A F4 0C 
09:29:26:0745 Rx 1 0x740 s 8 26 71 2C 73 2A DA 40 24 
09:29:26:0748 Rx 1 0x740 s 8 27 C3 30 37 FC 03 14 80 
09:29:26:0750 Rx 1 0x740 s 8 28 30 53 F0 64 71 E1 F1 
09:29:26:0752 Rx 1 0x740 s 8 29 44 71 D2 F1 85 71 BE 
09:29:26:0755 Rx 1 0x740 s 8 2A F1 CB 47 7B 00 78 40 
09:29:26:0757 Rx 1 0x740 s 8 2B 0D 8F 14 70 05 F4 0C 
09:29:26:0759 Rx 1 0x740 s 8 2C 8F 14 70 06 F2 47 FF 
09:29:26:0762 Rx 1 0x740 s 8 2D 0D 1F 03 10 0C 1F 03 
09:29:26:0764 Rx 1 0x740 s 8 2E 10 5F 20 80 11 D8 60 
09:29:26:0766 Rx 1 0x740 s 8 2F 56 10 00 01 5F FF 03 
09:29:26:0769 Rx 1 0x740 s 8 20 1C 02 30 03 14 80 30 
09:29:26:0772 Rx 1 0x740 s 8 21 14 71 04 F4 0C 71 31 
09:29:26:0773 Rx 1 0x740 s 8 22 F0 2C 70 9F 1E 03 10 
09:29:26:0776 Rx 1 0x740 s 8 23 5F 20 80 11 D8 60 54 
09:29:26:0779 Rx 1 0x740 s 8 24 18 43 00 43 85 30 78 
09:29:26:0781 Rx 1 0x740 s 8 25 F4 22 00 00 D3 70 00 
09:29:26:0783 Rx 1 0x740 s 8 26 00 FF FF 0D F2 43 85 
09:29:26:0786 Rx 1 0x740 s 8 27 30 78 F4 22 00 00 55 
09:29:26:0788 Rx 1 0x740 s 8 28 26 02 19 D8 60 90 18 
09:29:26:0790 Rx 1 0x740 s 8 29 C3 00 24 71 EE F1 5F 
09:29:26:0793 Rx 1 0x740 s 8 2A 20 80 11 D8 60 58 18 
09:29:26:0795 Rx 1 0x740 s 8 2B 05 00 01 40 2C 70 55 
09:29:26:0797 Rx 1 0x740 s 8 2C FF 9E 16 80 10 13 08 
09:29:26:0800 Rx 1 0x740 s 8 2D 51 00 C3 40 7B 00 FA 
09:29:26:0802 Rx 1 0x740 s 8 2E 50 00 18 83 00 63 FF 
09:29:26:0805 Rx 1 0x740 s 8 2F 03 14 80 30 C6 C7 E8 
09:29:26:0807 Rx 1 0x740 s 8 20 C2 10 40 CB 45 7B 00 
09:29:26:0809 Rx 1 0x740 s 8 21 5C 50 00 85 05 80 40 
09:29:26:0812 Rx 1 0x740 s 8 22 28 0F 21 1F 67 C3 40 
09:29:26:0814 Rx 1 0x740 s 8 23 7B 00 84 40 00 18 43 
09:29:26:0816 Rx 1 0x740 s 8 24 00 CD 70 23 87 D0 78 
09:29:26:0819 Rx 1 0x740 s 8 25 F4 21 00 00 D3 70 00 
09:29:26:0821 Rx 1 0x740 s 8 26 00 FF FF 1C F2 23 87 
09:29:26:0823 Rx 1 0x740 s 8 27 D0 78 F4 21 01 00 20 
09:29:26:0826 Rx 1 0x740 s 8 28 40 DE 0F 4F FF 14 73 
09:29:26:0828 Rx 1 0x740 s 8 29 10 F4 55 25 00 19 38 
09:29:26:0830 Rx 1 0x740 s 8 2A 65 90 18 83 00 00 85 
09:29:26:0833 Rx 1 0x740 s 8 2B 44 80 5F 21 00 0A 58 
09:29:26:0836 Rx 1 0x740 s 8 2C 60 21 80 34 70 04 F2 
09:29:26:0837 Rx 1 0x740 s 8 2D 01 80 40 78 C5 71 E0 
09:29:26:0840 Rx 1 0x740 s 8 2E F1 5F 20 80 21 54 25 
09:29:26:0843 Rx 1 0x740 s 8 2F 81 1A B8 60 54 18 C3 
09:29:26:0844 Rx 1 0x740 s 8 20 00 01 87 14 70 04 F2 
09:29:26:0847 Rx 1 0x740 s 8 21 01 87 40 78 C8 C6 E0 
09:29:26:0850 Rx 1 0x740 s 8 22 78 0C 71 E0 7E F1 C0 
09:29:26:0852 Rx 1 0x740 s 8 23 C3 40 7B 00 20 00 0E 
09:29:26:0854 Rx 1 0x740 s 8 24 09 00 00 22 20 80 0F 
09:29:26:0857 Rx 1 0x740 s 8 25 7B 00 30 00 D1 C0 E0 
09:29:26:0859 Rx 1 0x740 s 8 26 7E EE C3 CE 0C 00 00 
09:29:26:0861 Rx 1 0x740 s 8 27 08 46 07 D8 D5 78 6C 
09:29:26:0864 Rx 1 0x740 s 8 28 20 40 00 02 24 1C 30 
09:29:26:0866 Rx 1 0x740 s 8 29 E6 08 60 00 0A 22 00 
09:29:26:0868 Rx 1 0x740 s 8 2A 27 45 0E 72 10 AD 70 
09:29:26:0871 Rx 1 0x740 s 8 2B CB 47 7B 00 CC 47 0A 
09:29:26:0873 Rx 1 0x740 s 8 2C 23 80 24 E2 0C 20 00 
09:29:26:0876 Rx 1 0x740 s 8 2D A1 40 10 41 F1 40 11 
09:29:26:0878 Rx 1 0x740 s 8 2E E8 A2 0A 20 00 22 40 
09:29:26:0880 Rx 1 0x740 s 8 2F 04 74 6C 20 40 00 02 
09:29:26:0883 Rx 1 0x740 s 8 20 24 1C 30 B2 08 60 00 
09:29:26:0885 Rx 1 0x740 s 8 21 83 40 22 41 82 0B 20 
09:29:26:0887 Rx 1 0x740 s 8 22 00 10 40 A5 71 D5 0D 
09:29:26:0890 Rx 1 0x740 s 8 23 A2 93 04 1B 10 24 5D 
09:29:26:0892 Rx 1 0x740 s 8 24 D9 15 22 80 23 00 1E 
09:29:26:0894 Rx 1 0x740 s 8 25 40 70 7B 00 8C 40 00 
09:29:26:0897 Rx 1 0x740 s 8 26 18 01 00 C1 40 9E 0B 
09:29:26:0900 Rx 1 0x740 s 8 27 AF FE 42 41 F6 08 00 
09:29:26:0901 Rx 1 0x740 s 8 28 00 E0 78 F1 C0 C3 40 
09:29:26:0904 Rx 1 0x740 s 8 29 00 00 00 00 03 E8 A6 
09:29:26:0907 Rx 1 0x740 s 8 2A 09 8F FE C3 40 00 00 
09:29:26:0909 Rx 1 0x740 s 8 2B 00 00 14 70 F8 08 01 
09:29:26:0911 Rx 1 0x740 s 8 2C 00 00 16 00 70 7B 00 
09:29:26:0914 Rx 1 0x740 s 8 2D 88 40 17 E8 C3 40 7B 
09:29:26:0916 Rx 1 0x740 s 8 2E 00 F0 47 C3 41 7B 00 
09:29:26:0919 Rx 1 0x740 s 8 2F 2C 76 12 49 BA 0A 20 
09:29:26:0921 Rx 1 0x740 s 8 20 00 2C 70 C3 40 00 00 
09:29:26:0923 Rx 1 0x740 s 8 21 00 00 09 E8 C3 41 00 
09:29:26:0926 Rx 1 0x740 s 8 22 00 00 00 12 49 A2 0A 
09:29:26:0928 Rx 1 0x740 s 8 23 20 00 2C 70 56 0B 00 
09:29:26:0930 Rx 1 0x740 s 8 24 00 C2 0C 40 00 F6 09 
09:29:26:0933 Rx 1 0x740 s 8 25 40 00 C4 FF C9 FF E0 
09:29:26:0935 Rx 1 0x740 s 8 26 78 4A 20 00 09 20 20 
09:29:26:0937 Rx 1 0x740 s 8 27 80 0F 7B 00 0C 38 C3 
09:29:26:0940 Rx 1 0x740 s 8 28 40 7B 00 90 40 91 04 
09:29:26:0942 Rx 1 0x740 s 8 29 60 00 08 18 53 00 E0 
09:29:26:0945 Rx 1 0x740 s 8 2A 78 E6 C2 CB 45 7B 00 
09:29:26:0947 Rx 1 0x740 s 8 2B 90 40 20 8D 08 46 05 
09:29:26:0949 Rx 1 0x740 s 8 2C E9 02 85 14 70 7C 0C 
09:29:26:0952 Rx 1 0x740 s 8 2D 42 00 21 85 27 09 33 
09:29:26:0954 Rx 1 0x740 s 8 2E 09 ED 77 89 E9 C3 40 
09:29:26:0956 Rx 1 0x740 s 8 2F 7B 00 A0 40 00 18 80 
09:29:26:0959 Rx 1 0x740 s 8 20 0F 7B 00 04 30 41 69 
09:29:26:0961 Rx 1 0x740 s 8 21 15 26 40 70 7B 00 8C 
09:29:26:0964 Rx 1 0x740 s 8 22 74 ED 70 41 A5 C0 A0 
09:29:26:0966 Rx 1 0x740 s 8 23 00 8D 05 E8 02 85 14 
09:29:26:0968 Rx 1 0x740 s 8 24 70 4C 0C 42 00 E1 40 
09:29:26:1033 Rx 1 0x748 s 8 02 76 06 FF FF FF FF FF 
09:29:26:1050 Rx 1 0x740 s 8 18 02 36 07 C6 C6 E0 78 
09:29:26:1153 Rx 1 0x748 s 8 30 00 00 FF FF FF FF FF 
09:29:26:1161 Rx 1 0x740 s 8 21 E2 C2 C3 40 7B 00 94 
09:29:26:1164 Rx 1 0x740 s 8 22 40 A0 80 0A ED F0 26 
09:29:26:1166 Rx 1 0x740 s 8 23 40 73 7B 00 88 74 40 
09:29:26:1168 Rx 1 0x740 s 8 24 78 42 25 4D 90 FA F5 
09:29:26:1171 Rx 1 0x740 s 8 25 C2 C6 E0 78 E2 C2 C3 
09:29:26:1173 Rx 1 0x740 s 8 26 42 7B 00 9C 40 20 82 
09:29:26:1175 Rx 1 0x740 s 8 27 08 45 85 E9 D6 0A 20 
09:29:26:1178 Rx 1 0x740 s 8 28 00 00 1A 41 00 16 0B 
09:29:26:1180 Rx 1 0x740 s 8 29 20 00 A1 40 E0 7E E0 
09:29:26:1182 Rx 1 0x740 s 8 2A 78 E6 C3 A1 C1 C3 40 
09:29:26:1185 Rx 1 0x740 s 8 2B 00 00 00 00 84 E8 0C 
09:29:26:1188 Rx 1 0x740 s 8 2C 70 13 F0 C3 42 00 00 
09:29:26:1189 Rx 1 0x740 s 8 2D 00 00 00 8A C9 E0 0C 
09:29:26:1192 Rx 1 0x740 s 8 2E 71 0B F4 21 8A CE E1 
09:29:26:1195 Rx 1 0x740 s 8 2F 09 F4 22 8A C9 E1 05 
09:29:26:1197 Rx 1 0x740 s 8 20 F4 03 8A 14 73 0C 72 
09:29:26:1199 Rx 1 0x740 s 8 21 C2 F7 C6 C7 A4 6A 06 
09:29:26:1202 Rx 1 0x740 s 8 22 F4 C0 85 40 22 0D 02 
09:29:26:1204 Rx 1 0x740 s 8 23 10 F0 CB 46 7B 00 C4 
09:29:26:1206 Rx 1 0x740 s 8 24 30 0C F0 04 6D A4 68 
09:29:26:1209 Rx 1 0x740 s 8 25 08 F0 F3 7A 2C 70 8E 
09:29:26:1211 Rx 1 0x740 s 8 26 09 20 00 81 40 40 25 
09:29:26:1213 Rx 1 0x740 s 8 27 0D 12 E1 85 80 85 F5 
09:29:26:1216 Rx 1 0x740 s 8 28 70 0E F2 F5 F6 18 4D 
09:29:26:1218 Rx 1 0x740 s 8 29 80 C3 81 42 60 7E E1 
09:29:26:1220 Rx 1 0x740 s 8 2A 41 03 6F 6C 20 40 00 
09:29:26:1223 Rx 1 0x740 s 8 2B 1D 65 08 E5 F2 F1 E6 
09:29:26:1225 Rx 1 0x740 s 8 2C EC C8 F1 E4 C2 28 45 
09:29:26:1227 Rx 1 0x740 s 8 2D 00 41 40 40 A1 42 16 
09:29:26:1230 Rx 1 0x740 s 8 2E 08 20 00 68 46 A0 A6 
09:29:26:1232 Rx 1 0x740 s 8 2F C4 C6 E0 78 E0 78 E0 
09:29:26:1234 Rx 1 0x740 s 8 20 78 E0 78 0A 24 80 F0 
09:29:26:1237 Rx 1 0x740 s 8 21 05 20 44 00 E0 20 C1 
09:29:26:1239 Rx 1 0x740 s 8 22 07 44 24 FE 80 41 2A 
09:29:26:1241 Rx 1 0x740 s 8 23 C4 00 84 00 02 00 2F 
09:29:26:1244 Rx 1 0x740 s 8 24 24 02 F1 42 21 01 01 
09:29:26:1246 Rx 1 0x740 s 8 25 42 20 03 01 E8 20 A2 
09:29:26:1248 Rx 1 0x740 s 8 26 04 04 11 04 02 04 11 
09:29:26:1251 Rx 1 0x740 s 8 27 05 02 04 11 06 02 04 
09:29:26:1253 Rx 1 0x740 s 8 28 11 07 02 04 1B 08 01 
09:29:26:1256 Rx 1 0x740 s 8 29 04 1B 48 01 04 1B 88 
09:29:26:1258 Rx 1 0x740 s 8 2A 01 04 1B C8 01 2C 00 
09:29:26:1260 Rx 1 0x740 s 8 2B 25 00 44 22 3E 81 3C 
09:29:26:1263 Rx 1 0x740 s 8 2C 00 22 00 44 22 FC 80 
09:29:26:1266 Rx 1 0x740 s 8 2D 40 21 C1 00 E0 20 C1 
09:29:26:1268 Rx 1 0x740 s 8 2E 07 40 23 C3 00 A8 20 
09:29:26:1270 Rx 1 0x740 s 8 2F 80 01 01 11 84 02 01 
